!Agilent Technologies,N5230A,MY45001652,A.07.50.57
!Agilent N5230A: A.07.50.57
!Date: Monday, September 28, 2015 11:09:31
!Correction: S11(Full 2 Port(1,2)) 
!S21(Full 2 Port(1,2)) 
!S12(Full 2 Port(1,2)) 
!S22(Full 2 Port(1,2)) 
!S2P File: Measurements: S11, S21, S12, S22:
# Hz S  dB   R 50
4842000000 -2.316385e+001 -4.512321e+000 -3.230243e+001 8.186555e+001 -8.839539e+001 -1.291885e+001 -1.536228e+001 -6.069011e+001
4842250000 -2.306828e+001 -3.242865e+000 -3.216389e+001 7.949214e+001 -8.181969e+001 1.138172e+002 -1.539729e+001 -6.000881e+001
4842500000 -2.296598e+001 -1.683150e+000 -3.213572e+001 7.673715e+001 -8.120503e+001 -1.122086e+002 -1.544816e+001 -5.943943e+001
4842750000 -2.284911e+001 -3.861450e-001 -3.190392e+001 7.372823e+001 -7.563385e+001 4.135855e+001 -1.548546e+001 -5.876957e+001
4843000000 -2.275317e+001 7.255255e-001 -3.204071e+001 7.156719e+001 -7.972033e+001 9.542599e+001 -1.552690e+001 -5.828552e+001
4843250000 -2.266432e+001 2.209290e+000 -3.177947e+001 6.902598e+001 -7.957320e+001 -1.071238e+002 -1.556443e+001 -5.748106e+001
4843500000 -2.256397e+001 3.321624e+000 -3.171527e+001 6.569236e+001 -8.233707e+001 -1.341507e+002 -1.562577e+001 -5.693711e+001
4843750000 -2.249114e+001 4.650444e+000 -3.168567e+001 6.343742e+001 -7.375084e+001 -6.548093e+001 -1.568458e+001 -5.632096e+001
4844000000 -2.242073e+001 5.961040e+000 -3.155936e+001 6.227639e+001 -7.729394e+001 1.020826e+002 -1.574786e+001 -5.570971e+001
4844250000 -2.232344e+001 7.238832e+000 -3.147355e+001 5.849657e+001 -8.117941e+001 1.381073e+002 -1.581189e+001 -5.506507e+001
4844500000 -2.222553e+001 8.582181e+000 -3.129702e+001 5.633158e+001 -8.781446e+001 -5.184085e+001 -1.588429e+001 -5.437888e+001
4844750000 -2.214847e+001 9.792551e+000 -3.132926e+001 5.411251e+001 -8.464631e+001 1.289362e+002 -1.593916e+001 -5.380153e+001
4845000000 -2.205689e+001 1.098109e+001 -3.114879e+001 5.132785e+001 -7.988503e+001 -7.857161e+001 -1.600998e+001 -5.324138e+001
4845250000 -2.198633e+001 1.211757e+001 -3.104136e+001 4.828316e+001 -8.146068e+001 -5.569750e+000 -1.606444e+001 -5.235693e+001
4845500000 -2.189799e+001 1.347807e+001 -3.097345e+001 4.691645e+001 -7.937354e+001 -1.125403e+001 -1.612446e+001 -5.184443e+001
4845750000 -2.183891e+001 1.451501e+001 -3.097290e+001 4.359798e+001 -7.648333e+001 1.589549e+002 -1.623411e+001 -5.129589e+001
4846000000 -2.174097e+001 1.586210e+001 -3.079690e+001 4.129882e+001 -7.488515e+001 1.266853e+002 -1.634550e+001 -5.071346e+001
4846250000 -2.166964e+001 1.707213e+001 -3.061490e+001 3.803667e+001 -8.133226e+001 6.485274e+001 -1.639646e+001 -4.999236e+001
4846500000 -2.160009e+001 1.815311e+001 -3.055343e+001 3.635511e+001 -6.920064e+001 2.498787e+001 -1.647514e+001 -4.958310e+001
4846750000 -2.152329e+001 1.933138e+001 -3.037699e+001 3.361730e+001 -7.946579e+001 2.703833e+001 -1.655758e+001 -4.885555e+001
4847000000 -2.145214e+001 2.064727e+001 -3.028562e+001 3.082461e+001 -7.315311e+001 8.621947e+001 -1.666719e+001 -4.840745e+001
4847250000 -2.140808e+001 2.163645e+001 -3.022170e+001 2.778994e+001 -8.208002e+001 4.888624e+001 -1.676038e+001 -4.771712e+001
4847500000 -2.130620e+001 2.293630e+001 -3.007601e+001 2.534432e+001 -7.831207e+001 1.297580e+002 -1.685915e+001 -4.708727e+001
4847750000 -2.127039e+001 2.402114e+001 -2.995090e+001 2.274252e+001 -7.581210e+001 4.029117e+001 -1.695814e+001 -4.654478e+001
4848000000 -2.120621e+001 2.511851e+001 -2.986760e+001 1.958016e+001 -7.247482e+001 1.236569e+002 -1.709230e+001 -4.590389e+001
4848250000 -2.114823e+001 2.627233e+001 -2.970997e+001 1.758226e+001 -7.346112e+001 -5.708169e+001 -1.718763e+001 -4.542473e+001
4848500000 -2.107763e+001 2.737713e+001 -2.958005e+001 1.514386e+001 -8.336499e+001 -1.423496e+002 -1.730648e+001 -4.494453e+001
4848750000 -2.102122e+001 2.849062e+001 -2.946309e+001 1.219289e+001 -7.599057e+001 2.823784e+001 -1.743305e+001 -4.418701e+001
4849000000 -2.097466e+001 2.962640e+001 -2.939595e+001 1.034993e+001 -8.161635e+001 -8.664266e+000 -1.758464e+001 -4.397187e+001
4849250000 -2.092921e+001 3.078644e+001 -2.919264e+001 7.501312e+000 -8.782685e+001 5.259586e+001 -1.768255e+001 -4.338000e+001
4849500000 -2.086837e+001 3.187827e+001 -2.906803e+001 4.139559e+000 -8.525333e+001 1.062679e+002 -1.781863e+001 -4.270692e+001
4849750000 -2.083244e+001 3.295495e+001 -2.899783e+001 1.709303e+000 -7.797021e+001 -1.117843e+002 -1.794457e+001 -4.219787e+001
4850000000 -2.077960e+001 3.412203e+001 -2.880445e+001 -6.286571e-001 -9.161594e+001 1.476662e+002 -1.811320e+001 -4.155562e+001
4850250000 -2.073673e+001 3.517499e+001 -2.871046e+001 -2.465934e+000 -7.459303e+001 -1.383366e+001 -1.826466e+001 -4.131595e+001
4850500000 -2.069760e+001 3.627618e+001 -2.857017e+001 -6.340321e+000 -7.725902e+001 -7.305963e+001 -1.841492e+001 -4.073195e+001
4850750000 -2.065610e+001 3.729314e+001 -2.850560e+001 -8.585105e+000 -7.390069e+001 9.716989e+001 -1.861365e+001 -4.021265e+001
4851000000 -2.064620e+001 3.839200e+001 -2.834061e+001 -1.058321e+001 -7.232001e+001 1.175350e+002 -1.877207e+001 -3.979240e+001
4851250000 -2.060843e+001 3.945776e+001 -2.824945e+001 -1.287209e+001 -7.352586e+001 1.107245e+002 -1.895890e+001 -3.897942e+001
4851500000 -2.058026e+001 4.051957e+001 -2.801668e+001 -1.638247e+001 -7.168398e+001 7.411787e+001 -1.913186e+001 -3.878170e+001
4851750000 -2.056082e+001 4.158055e+001 -2.793321e+001 -1.889427e+001 -7.412289e+001 1.551079e+001 -1.931319e+001 -3.821102e+001
4852000000 -2.051283e+001 4.248248e+001 -2.779379e+001 -2.128978e+001 -8.255386e+001 -1.259767e+002 -1.954924e+001 -3.778292e+001
4852250000 -2.050546e+001 4.352264e+001 -2.769886e+001 -2.348928e+001 -8.948057e+001 1.331775e+002 -1.976958e+001 -3.702132e+001
4852500000 -2.047997e+001 4.456988e+001 -2.749213e+001 -2.582978e+001 -8.145853e+001 -5.057303e+001 -1.995391e+001 -3.671872e+001
4852750000 -2.047395e+001 4.567042e+001 -2.732871e+001 -2.837165e+001 -7.362177e+001 -1.715886e+002 -2.015284e+001 -3.613919e+001
4853000000 -2.042500e+001 4.666700e+001 -2.715620e+001 -3.122262e+001 -9.009908e+001 -8.924677e+001 -2.041903e+001 -3.580688e+001
4853250000 -2.042460e+001 4.774900e+001 -2.698134e+001 -3.401944e+001 -8.107484e+001 -1.777064e+002 -2.062464e+001 -3.531190e+001
4853500000 -2.040969e+001 4.884678e+001 -2.686517e+001 -3.624432e+001 -7.899194e+001 -3.531513e+001 -2.090786e+001 -3.515194e+001
4853750000 -2.040395e+001 4.988934e+001 -2.670109e+001 -3.883094e+001 -7.833904e+001 1.600356e+002 -2.113665e+001 -3.500126e+001
4854000000 -2.040041e+001 5.092739e+001 -2.655947e+001 -4.064190e+001 -8.749868e+001 1.045827e+002 -2.141505e+001 -3.448525e+001
4854250000 -2.037499e+001 5.194006e+001 -2.642583e+001 -4.358927e+001 -7.224670e+001 1.105305e+002 -2.169384e+001 -3.414754e+001
4854500000 -2.037571e+001 5.290658e+001 -2.625326e+001 -4.586379e+001 -7.807999e+001 -2.843686e+000 -2.194080e+001 -3.375837e+001
4854750000 -2.037230e+001 5.389712e+001 -2.595756e+001 -4.809610e+001 -8.703123e+001 2.219220e+001 -2.227495e+001 -3.351234e+001
4855000000 -2.036364e+001 5.505378e+001 -2.585895e+001 -5.104757e+001 -8.574388e+001 3.519355e+001 -2.259933e+001 -3.345737e+001
4855250000 -2.036581e+001 5.605343e+001 -2.561359e+001 -5.401886e+001 -7.405209e+001 -1.656272e+002 -2.294919e+001 -3.292088e+001
4855500000 -2.037380e+001 5.699532e+001 -2.544262e+001 -5.609474e+001 -9.508197e+001 -1.274151e+002 -2.325571e+001 -3.310368e+001
4855750000 -2.036392e+001 5.809447e+001 -2.520549e+001 -5.869125e+001 -8.037833e+001 -4.306911e+001 -2.359372e+001 -3.327256e+001
4856000000 -2.037287e+001 5.908629e+001 -2.501742e+001 -6.161735e+001 -7.050390e+001 4.655832e+001 -2.403712e+001 -3.300788e+001
4856250000 -2.038334e+001 6.012379e+001 -2.479159e+001 -6.427832e+001 -8.218848e+001 -1.422854e+001 -2.437463e+001 -3.321951e+001
4856500000 -2.039460e+001 6.115345e+001 -2.459245e+001 -6.619177e+001 -7.488878e+001 -1.276202e+002 -2.482945e+001 -3.338870e+001
4856750000 -2.040886e+001 6.224044e+001 -2.440318e+001 -6.886408e+001 -7.827593e+001 1.741017e+002 -2.526632e+001 -3.335632e+001
4857000000 -2.041339e+001 6.313279e+001 -2.417669e+001 -7.186991e+001 -7.039453e+001 -6.222939e+001 -2.571114e+001 -3.404977e+001
4857250000 -2.044938e+001 6.421494e+001 -2.397686e+001 -7.427209e+001 -8.096082e+001 1.143657e+002 -2.618974e+001 -3.489800e+001
4857500000 -2.046944e+001 6.525915e+001 -2.371624e+001 -7.648189e+001 -7.270110e+001 -4.662788e+001 -2.669188e+001 -3.507800e+001
4857750000 -2.047541e+001 6.635694e+001 -2.354336e+001 -7.935481e+001 -8.050092e+001 -6.295162e+001 -2.725118e+001 -3.632949e+001
4858000000 -2.048689e+001 6.732796e+001 -2.324270e+001 -8.207599e+001 -7.820724e+001 3.889646e+000 -2.785762e+001 -3.763227e+001
4858250000 -2.052597e+001 6.842471e+001 -2.302257e+001 -8.477184e+001 -8.890679e+001 -1.210771e+001 -2.847407e+001 -3.849984e+001
4858500000 -2.054527e+001 6.947641e+001 -2.276688e+001 -8.667503e+001 -7.389001e+001 -1.300536e+002 -2.909614e+001 -4.017148e+001
4858750000 -2.057566e+001 7.040677e+001 -2.249255e+001 -8.968377e+001 -7.523573e+001 1.300117e+002 -2.973358e+001 -4.299413e+001
4859000000 -2.059277e+001 7.164027e+001 -2.224309e+001 -9.243714e+001 -8.248574e+001 1.086875e+002 -3.047371e+001 -4.470624e+001
4859250000 -2.065318e+001 7.244823e+001 -2.199045e+001 -9.478361e+001 -9.594240e+001 1.725034e+001 -3.106577e+001 -4.815333e+001
4859500000 -2.069087e+001 7.354907e+001 -2.172214e+001 -9.747014e+001 -9.341541e+001 -7.389556e+001 -3.189600e+001 -5.198419e+001
4859750000 -2.071527e+001 7.468570e+001 -2.139913e+001 -1.001126e+002 -7.496249e+001 9.149942e+001 -3.273831e+001 -5.745075e+001
4860000000 -2.076786e+001 7.565936e+001 -2.110593e+001 -1.026354e+002 -8.156140e+001 -1.026037e+002 -3.329080e+001 -6.305633e+001
4860250000 -2.082416e+001 7.680490e+001 -2.080806e+001 -1.053951e+002 -8.631802e+001 1.764587e+002 -3.405988e+001 -6.949296e+001
4860500000 -2.088211e+001 7.760555e+001 -2.049551e+001 -1.078981e+002 -8.287898e+001 1.457419e+002 -3.466693e+001 -7.754131e+001
4860750000 -2.088367e+001 7.879305e+001 -2.015338e+001 -1.106935e+002 -8.283985e+001 -6.535094e+001 -3.481874e+001 -8.744734e+001
4861000000 -2.097083e+001 7.974364e+001 -1.976908e+001 -1.132303e+002 -7.802780e+001 -9.079318e+001 -3.485288e+001 -9.491894e+001
4861250000 -2.101148e+001 8.097822e+001 -1.945113e+001 -1.160751e+002 -8.014492e+001 -1.056353e+002 -3.466704e+001 -1.038002e+002
4861500000 -2.106266e+001 8.185809e+001 -1.903059e+001 -1.185640e+002 -7.448915e+001 1.190424e+002 -3.423920e+001 -1.132500e+002
4861750000 -2.111821e+001 8.294093e+001 -1.862419e+001 -1.214231e+002 -7.461977e+001 6.843906e+001 -3.343698e+001 -1.198226e+002
4862000000 -2.121827e+001 8.407294e+001 -1.821755e+001 -1.243037e+002 -7.938074e+001 7.670206e+001 -3.283267e+001 -1.262950e+002
4862250000 -2.127984e+001 8.513544e+001 -1.776488e+001 -1.271561e+002 -7.376790e+001 5.811504e+001 -3.202217e+001 -1.314537e+002
4862500000 -2.136110e+001 8.610890e+001 -1.733040e+001 -1.300038e+002 -8.025359e+001 8.047364e+001 -3.139962e+001 -1.356171e+002
4862750000 -2.141967e+001 8.729543e+001 -1.684826e+001 -1.330538e+002 -8.574761e+001 1.640187e+002 -3.056584e+001 -1.382718e+002
4863000000 -2.147579e+001 8.826137e+001 -1.632780e+001 -1.358140e+002 -9.861057e+001 -3.686024e+001 -2.974561e+001 -1.421665e+002
4863250000 -2.155045e+001 8.933419e+001 -1.575060e+001 -1.390806e+002 -8.653757e+001 1.216683e+002 -2.904626e+001 -1.444276e+002
4863500000 -2.165342e+001 9.023548e+001 -1.520800e+001 -1.422512e+002 -8.772264e+001 -7.247907e+001 -2.826769e+001 -1.463342e+002
4863750000 -2.172914e+001 9.130411e+001 -1.458941e+001 -1.454436e+002 -7.481170e+001 1.913976e+001 -2.755167e+001 -1.464891e+002
4864000000 -2.180690e+001 9.245284e+001 -1.391431e+001 -1.489081e+002 -8.308439e+001 1.482996e+001 -2.693115e+001 -1.485121e+002
4864250000 -2.191171e+001 9.336552e+001 -1.321795e+001 -1.525316e+002 -7.569732e+001 -8.169208e+001 -2.630956e+001 -1.493383e+002
4864500000 -2.199024e+001 9.442719e+001 -1.243937e+001 -1.563582e+002 -8.349157e+001 -1.833381e+001 -2.576052e+001 -1.492672e+002
4864750000 -2.206455e+001 9.545328e+001 -1.162259e+001 -1.604569e+002 -7.649953e+001 1.374109e+002 -2.521400e+001 -1.499431e+002
4865000000 -2.217454e+001 9.664512e+001 -1.070594e+001 -1.648763e+002 -8.117387e+001 5.757262e+001 -2.474713e+001 -1.503010e+002
4865250000 -2.227579e+001 9.763190e+001 -9.681701e+000 -1.698668e+002 -7.345009e+001 -1.864264e+001 -2.425236e+001 -1.506427e+002
4865500000 -2.242058e+001 9.862548e+001 -8.572107e+000 -1.756493e+002 -8.132113e+001 -1.277108e+002 -2.382227e+001 -1.508219e+002
4865750000 -2.252267e+001 9.968578e+001 -7.363336e+000 1.775161e+002 -7.790006e+001 1.491012e+002 -2.347509e+001 -1.506474e+002
4866000000 -2.259087e+001 1.008528e+002 -5.966937e+000 1.691662e+002 -7.729250e+001 -6.019821e+001 -2.301731e+001 -1.509751e+002
4866250000 -2.276125e+001 1.018937e+002 -4.476918e+000 1.583413e+002 -7.967094e+001 -6.671763e+001 -2.269581e+001 -1.509801e+002
4866500000 -2.284358e+001 1.029328e+002 -3.041122e+000 1.443344e+002 -7.839255e+001 1.214799e+002 -2.231061e+001 -1.508071e+002
4866750000 -2.298858e+001 1.039839e+002 -1.921115e+000 1.263743e+002 -8.212783e+001 -2.238461e+001 -2.197173e+001 -1.507266e+002
4867000000 -2.312738e+001 1.052038e+002 -1.457206e+000 1.052776e+002 -7.747947e+001 7.615363e+001 -2.162015e+001 -1.505739e+002
4867250000 -2.325301e+001 1.063123e+002 -1.979793e+000 8.410138e+001 -8.039433e+001 8.645821e+001 -2.132946e+001 -1.499435e+002
4867500000 -2.340830e+001 1.072067e+002 -3.199942e+000 6.619901e+001 -7.928049e+001 -8.584240e+001 -2.105483e+001 -1.496267e+002
4867750000 -2.355800e+001 1.084987e+002 -4.669522e+000 5.252389e+001 -7.961520e+001 1.680109e+001 -2.074886e+001 -1.495892e+002
4868000000 -2.372263e+001 1.096078e+002 -6.121012e+000 4.244762e+001 -8.276975e+001 -9.613867e+001 -2.046461e+001 -1.494352e+002
4868250000 -2.387768e+001 1.106237e+002 -7.454823e+000 3.438833e+001 -8.570083e+001 1.104827e+002 -2.020577e+001 -1.486976e+002
4868500000 -2.403330e+001 1.119321e+002 -8.699831e+000 2.784988e+001 -7.987853e+001 5.634608e+001 -1.996845e+001 -1.486642e+002
4868750000 -2.422089e+001 1.129871e+002 -9.811616e+000 2.221417e+001 -7.703510e+001 -1.698160e+002 -1.973157e+001 -1.481719e+002
4869000000 -2.440177e+001 1.140957e+002 -1.082683e+001 1.724818e+001 -8.392220e+001 -5.330219e+001 -1.951060e+001 -1.480853e+002
4869250000 -2.459712e+001 1.153682e+002 -1.173912e+001 1.274465e+001 -7.789246e+001 -5.097557e+001 -1.925506e+001 -1.475774e+002
4869500000 -2.474153e+001 1.165097e+002 -1.257863e+001 8.719295e+000 -7.468201e+001 1.406760e+002 -1.904731e+001 -1.471861e+002
4869750000 -2.496173e+001 1.176589e+002 -1.336367e+001 5.022768e+000 -7.809338e+001 -1.738344e+002 -1.884545e+001 -1.466992e+002
4870000000 -2.517781e+001 1.189645e+002 -1.407615e+001 1.545501e+000 -8.017928e+001 1.518694e+002 -1.861402e+001 -1.460792e+002
4870250000 -2.536335e+001 1.200703e+002 -1.473825e+001 -1.799308e+000 -7.944807e+001 -1.264855e+002 -1.845601e+001 -1.460205e+002
4870500000 -2.558559e+001 1.215365e+002 -1.532418e+001 -5.107224e+000 -7.620721e+001 -8.655204e+001 -1.823766e+001 -1.453555e+002
4870750000 -2.585149e+001 1.227605e+002 -1.591527e+001 -7.949347e+000 -7.824502e+001 -7.830116e+001 -1.805870e+001 -1.450745e+002
4871000000 -2.606307e+001 1.242436e+002 -1.648370e+001 -1.119418e+001 -7.810009e+001 -1.122974e+002 -1.786674e+001 -1.445713e+002
4871250000 -2.627906e+001 1.256210e+002 -1.697416e+001 -1.424709e+001 -7.483641e+001 1.640257e+002 -1.771759e+001 -1.441483e+002
4871500000 -2.658481e+001 1.269257e+002 -1.750650e+001 -1.688960e+001 -7.584400e+001 2.933975e+001 -1.754143e+001 -1.435499e+002
4871750000 -2.686080e+001 1.282552e+002 -1.791232e+001 -1.977330e+001 -7.341367e+001 1.772847e+002 -1.738275e+001 -1.429215e+002
4872000000 -2.710250e+001 1.295536e+002 -1.837579e+001 -2.241955e+001 -7.598620e+001 4.050377e+001 -1.720081e+001 -1.425714e+002
4872250000 -2.740065e+001 1.310827e+002 -1.878418e+001 -2.544420e+001 -8.770792e+001 -4.704417e+001 -1.705010e+001 -1.419808e+002
4872500000 -2.766540e+001 1.329404e+002 -1.920180e+001 -2.789331e+001 -7.672581e+001 -1.166973e+002 -1.694637e+001 -1.417437e+002
4872750000 -2.802609e+001 1.339990e+002 -1.954922e+001 -3.072254e+001 -8.309599e+001 -3.169040e+001 -1.677826e+001 -1.410931e+002
4873000000 -2.833659e+001 1.355917e+002 -1.991863e+001 -3.333277e+001 -8.406943e+001 -3.200934e+001 -1.660806e+001 -1.408141e+002
4873250000 -2.866376e+001 1.377564e+002 -2.030467e+001 -3.602639e+001 -9.204643e+001 -1.035510e+002 -1.648297e+001 -1.403656e+002
4873500000 -2.907481e+001 1.394082e+002 -2.065263e+001 -3.843375e+001 -7.248072e+001 1.689034e+002 -1.634562e+001 -1.397552e+002
4873750000 -2.943092e+001 1.409396e+002 -2.092133e+001 -4.123544e+001 -7.005077e+001 -8.544287e+000 -1.621515e+001 -1.394054e+002
4874000000 -2.980676e+001 1.430822e+002 -2.128634e+001 -4.383793e+001 -7.891004e+001 3.145955e+001 -1.609856e+001 -1.388473e+002
4874250000 -3.018503e+001 1.447795e+002 -2.157250e+001 -4.630964e+001 -9.701326e+001 -4.522771e+001 -1.596735e+001 -1.384204e+002
4874500000 -3.065876e+001 1.470912e+002 -2.189157e+001 -4.896888e+001 -8.068487e+001 9.234944e+001 -1.585843e+001 -1.378083e+002
4874750000 -3.109337e+001 1.496766e+002 -2.218052e+001 -5.142891e+001 -8.038141e+001 -1.500752e+002 -1.570486e+001 -1.374611e+002
4875000000 -3.157586e+001 1.522921e+002 -2.249587e+001 -5.343782e+001 -7.600622e+001 1.514998e+002 -1.562031e+001 -1.368436e+002
4875250000 -3.208032e+001 1.554103e+002 -2.273444e+001 -5.630058e+001 -8.618858e+001 -1.326644e+002 -1.549744e+001 -1.363722e+002
4875500000 -3.258818e+001 1.576035e+002 -2.296358e+001 -5.833482e+001 -7.740173e+001 1.417142e+002 -1.536116e+001 -1.356482e+002
4875750000 -3.314861e+001 1.605783e+002 -2.324007e+001 -6.090830e+001 -8.124681e+001 1.202859e+001 -1.525952e+001 -1.350641e+002
4876000000 -3.371562e+001 1.632590e+002 -2.354322e+001 -6.359176e+001 -8.456734e+001 -1.084018e+002 -1.515091e+001 -1.345388e+002
4876250000 -3.418815e+001 1.663062e+002 -2.369660e+001 -6.623296e+001 -7.969090e+001 1.277881e+001 -1.504374e+001 -1.338270e+002
4876500000 -3.485506e+001 1.700704e+002 -2.396602e+001 -6.876511e+001 -8.221063e+001 1.474705e+002 -1.493941e+001 -1.333443e+002
4876750000 -3.545376e+001 1.737250e+002 -2.422466e+001 -7.084813e+001 -7.981781e+001 -1.309854e+002 -1.481212e+001 -1.326647e+002
4877000000 -3.619027e+001 1.782300e+002 -2.444753e+001 -7.360430e+001 -8.647037e+001 -8.071020e+001 -1.471998e+001 -1.319724e+002
4877250000 -3.682538e+001 -1.768905e+002 -2.463563e+001 -7.591292e+001 -8.051183e+001 -1.734916e+002 -1.463546e+001 -1.313540e+002
4877500000 -3.752262e+001 -1.703006e+002 -2.480040e+001 -7.870085e+001 -7.263687e+001 -4.050490e+001 -1.454780e+001 -1.307498e+002
4877750000 -3.808708e+001 -1.632840e+002 -2.497923e+001 -8.093200e+001 -7.872484e+001 5.993361e+001 -1.445941e+001 -1.302078e+002
4878000000 -3.861552e+001 -1.563111e+002 -2.529490e+001 -8.300878e+001 -8.730148e+001 3.167150e+001 -1.434682e+001 -1.295764e+002
4878250000 -3.915089e+001 -1.481733e+002 -2.542039e+001 -8.574641e+001 -8.321356e+001 1.311706e+002 -1.427012e+001 -1.289297e+002
4878500000 -3.943592e+001 -1.377994e+002 -2.556112e+001 -8.852383e+001 -7.364691e+001 7.415261e+001 -1.418203e+001 -1.282255e+002
4878750000 -3.950880e+001 -1.283159e+002 -2.576530e+001 -9.057236e+001 -8.330349e+001 1.817846e+001 -1.414657e+001 -1.276086e+002
4879000000 -3.946682e+001 -1.184556e+002 -2.596647e+001 -9.317354e+001 -7.292310e+001 -9.287002e+001 -1.405810e+001 -1.269151e+002
4879250000 -3.923894e+001 -1.097101e+002 -2.616972e+001 -9.603563e+001 -7.950321e+001 -2.520897e+001 -1.398126e+001 -1.261998e+002
4879500000 -3.871692e+001 -1.012749e+002 -2.626655e+001 -9.796235e+001 -7.748768e+001 -1.029950e+001 -1.390494e+001 -1.256330e+002
4879750000 -3.828611e+001 -9.356415e+001 -2.648176e+001 -1.002239e+002 -7.930381e+001 5.492784e+001 -1.385189e+001 -1.249835e+002
