!Agilent Technologies,N5230A,MY45001652,A.07.50.57
!Agilent N5230A: A.07.50.57
!Date: Monday, September 28, 2015 13:34:15
!Correction: S11(Off) 
!S21(Off) 
!S12(Off) 
!S22(Off) 
!S2P File: Measurements: S11, S21, S12, S22:
# Hz S  dB   R 50
4975000000 -2.000000e+002 4.500000e+001 -3.629259e+001 1.696833e+002 -2.000000e+002 4.500000e+001 -2.000000e+002 4.500000e+001
4975250000 -2.000000e+002 4.500000e+001 -3.604227e+001 1.668714e+002 -2.000000e+002 4.500000e+001 -2.000000e+002 4.500000e+001
4975500000 -2.000000e+002 4.500000e+001 -3.560825e+001 1.634184e+002 -2.000000e+002 4.500000e+001 -2.000000e+002 4.500000e+001
4975750000 -2.000000e+002 4.500000e+001 -3.581298e+001 1.582165e+002 -2.000000e+002 4.500000e+001 -2.000000e+002 4.500000e+001
4976000000 -2.000000e+002 4.500000e+001 -3.541598e+001 1.538092e+002 -2.000000e+002 4.500000e+001 -2.000000e+002 4.500000e+001
4976250000 -2.000000e+002 4.500000e+001 -3.560717e+001 1.490877e+002 -2.000000e+002 4.500000e+001 -2.000000e+002 4.500000e+001
4976500000 -2.000000e+002 4.500000e+001 -3.543325e+001 1.438825e+002 -2.000000e+002 4.500000e+001 -2.000000e+002 4.500000e+001
4976750000 -2.000000e+002 4.500000e+001 -3.500591e+001 1.389020e+002 -2.000000e+002 4.500000e+001 -2.000000e+002 4.500000e+001
4977000000 -2.000000e+002 4.500000e+001 -3.531620e+001 1.362198e+002 -2.000000e+002 4.500000e+001 -2.000000e+002 4.500000e+001
4977250000 -2.000000e+002 4.500000e+001 -3.518375e+001 1.331979e+002 -2.000000e+002 4.500000e+001 -2.000000e+002 4.500000e+001
4977500000 -2.000000e+002 4.500000e+001 -3.484790e+001 1.256669e+002 -2.000000e+002 4.500000e+001 -2.000000e+002 4.500000e+001
4977750000 -2.000000e+002 4.500000e+001 -3.492591e+001 1.235659e+002 -2.000000e+002 4.500000e+001 -2.000000e+002 4.500000e+001
4978000000 -2.000000e+002 4.500000e+001 -3.487587e+001 1.200255e+002 -2.000000e+002 4.500000e+001 -2.000000e+002 4.500000e+001
4978250000 -2.000000e+002 4.500000e+001 -3.472528e+001 1.156286e+002 -2.000000e+002 4.500000e+001 -2.000000e+002 4.500000e+001
4978500000 -2.000000e+002 4.500000e+001 -3.469035e+001 1.125347e+002 -2.000000e+002 4.500000e+001 -2.000000e+002 4.500000e+001
4978750000 -2.000000e+002 4.500000e+001 -3.443491e+001 1.071858e+002 -2.000000e+002 4.500000e+001 -2.000000e+002 4.500000e+001
4979000000 -2.000000e+002 4.500000e+001 -3.469464e+001 1.028366e+002 -2.000000e+002 4.500000e+001 -2.000000e+002 4.500000e+001
4979250000 -2.000000e+002 4.500000e+001 -3.429291e+001 9.975384e+001 -2.000000e+002 4.500000e+001 -2.000000e+002 4.500000e+001
4979500000 -2.000000e+002 4.500000e+001 -3.406016e+001 9.388315e+001 -2.000000e+002 4.500000e+001 -2.000000e+002 4.500000e+001
4979750000 -2.000000e+002 4.500000e+001 -3.386703e+001 9.206933e+001 -2.000000e+002 4.500000e+001 -2.000000e+002 4.500000e+001
4980000000 -2.000000e+002 4.500000e+001 -3.371475e+001 8.728120e+001 -2.000000e+002 4.500000e+001 -2.000000e+002 4.500000e+001
4980250000 -2.000000e+002 4.500000e+001 -3.358470e+001 8.411051e+001 -2.000000e+002 4.500000e+001 -2.000000e+002 4.500000e+001
4980500000 -2.000000e+002 4.500000e+001 -3.331036e+001 8.039371e+001 -2.000000e+002 4.500000e+001 -2.000000e+002 4.500000e+001
4980750000 -2.000000e+002 4.500000e+001 -3.336357e+001 7.623953e+001 -2.000000e+002 4.500000e+001 -2.000000e+002 4.500000e+001
4981000000 -2.000000e+002 4.500000e+001 -3.317594e+001 7.160286e+001 -2.000000e+002 4.500000e+001 -2.000000e+002 4.500000e+001
4981250000 -2.000000e+002 4.500000e+001 -3.295649e+001 6.509422e+001 -2.000000e+002 4.500000e+001 -2.000000e+002 4.500000e+001
4981500000 -2.000000e+002 4.500000e+001 -3.296754e+001 6.349330e+001 -2.000000e+002 4.500000e+001 -2.000000e+002 4.500000e+001
4981750000 -2.000000e+002 4.500000e+001 -3.281663e+001 5.760166e+001 -2.000000e+002 4.500000e+001 -2.000000e+002 4.500000e+001
4982000000 -2.000000e+002 4.500000e+001 -3.273476e+001 5.354173e+001 -2.000000e+002 4.500000e+001 -2.000000e+002 4.500000e+001
4982250000 -2.000000e+002 4.500000e+001 -3.248025e+001 4.843600e+001 -2.000000e+002 4.500000e+001 -2.000000e+002 4.500000e+001
4982500000 -2.000000e+002 4.500000e+001 -3.249264e+001 4.589294e+001 -2.000000e+002 4.500000e+001 -2.000000e+002 4.500000e+001
4982750000 -2.000000e+002 4.500000e+001 -3.246934e+001 4.274653e+001 -2.000000e+002 4.500000e+001 -2.000000e+002 4.500000e+001
4983000000 -2.000000e+002 4.500000e+001 -3.215513e+001 3.812994e+001 -2.000000e+002 4.500000e+001 -2.000000e+002 4.500000e+001
4983250000 -2.000000e+002 4.500000e+001 -3.228283e+001 3.450579e+001 -2.000000e+002 4.500000e+001 -2.000000e+002 4.500000e+001
4983500000 -2.000000e+002 4.500000e+001 -3.195151e+001 3.000899e+001 -2.000000e+002 4.500000e+001 -2.000000e+002 4.500000e+001
4983750000 -2.000000e+002 4.500000e+001 -3.176559e+001 2.525628e+001 -2.000000e+002 4.500000e+001 -2.000000e+002 4.500000e+001
4984000000 -2.000000e+002 4.500000e+001 -3.177676e+001 2.047071e+001 -2.000000e+002 4.500000e+001 -2.000000e+002 4.500000e+001
4984250000 -2.000000e+002 4.500000e+001 -3.156195e+001 1.841141e+001 -2.000000e+002 4.500000e+001 -2.000000e+002 4.500000e+001
4984500000 -2.000000e+002 4.500000e+001 -3.131992e+001 1.509767e+001 -2.000000e+002 4.500000e+001 -2.000000e+002 4.500000e+001
4984750000 -2.000000e+002 4.500000e+001 -3.108432e+001 9.254452e+000 -2.000000e+002 4.500000e+001 -2.000000e+002 4.500000e+001
4985000000 -2.000000e+002 4.500000e+001 -3.094488e+001 5.478703e+000 -2.000000e+002 4.500000e+001 -2.000000e+002 4.500000e+001
4985250000 -2.000000e+002 4.500000e+001 -3.077084e+001 1.361498e+000 -2.000000e+002 4.500000e+001 -2.000000e+002 4.500000e+001
4985500000 -2.000000e+002 4.500000e+001 -3.052278e+001 -3.175681e+000 -2.000000e+002 4.500000e+001 -2.000000e+002 4.500000e+001
4985750000 -2.000000e+002 4.500000e+001 -3.041942e+001 -5.773055e+000 -2.000000e+002 4.500000e+001 -2.000000e+002 4.500000e+001
4986000000 -2.000000e+002 4.500000e+001 -3.014785e+001 -1.078804e+001 -2.000000e+002 4.500000e+001 -2.000000e+002 4.500000e+001
4986250000 -2.000000e+002 4.500000e+001 -2.991092e+001 -1.523275e+001 -2.000000e+002 4.500000e+001 -2.000000e+002 4.500000e+001
4986500000 -2.000000e+002 4.500000e+001 -2.971174e+001 -1.920692e+001 -2.000000e+002 4.500000e+001 -2.000000e+002 4.500000e+001
4986750000 -2.000000e+002 4.500000e+001 -2.962355e+001 -2.324455e+001 -2.000000e+002 4.500000e+001 -2.000000e+002 4.500000e+001
4987000000 -2.000000e+002 4.500000e+001 -2.962748e+001 -2.732442e+001 -2.000000e+002 4.500000e+001 -2.000000e+002 4.500000e+001
4987250000 -2.000000e+002 4.500000e+001 -2.936699e+001 -3.099917e+001 -2.000000e+002 4.500000e+001 -2.000000e+002 4.500000e+001
4987500000 -2.000000e+002 4.500000e+001 -2.902932e+001 -3.565571e+001 -2.000000e+002 4.500000e+001 -2.000000e+002 4.500000e+001
4987750000 -2.000000e+002 4.500000e+001 -2.880206e+001 -4.031387e+001 -2.000000e+002 4.500000e+001 -2.000000e+002 4.500000e+001
4988000000 -2.000000e+002 4.500000e+001 -2.870037e+001 -4.396469e+001 -2.000000e+002 4.500000e+001 -2.000000e+002 4.500000e+001
4988250000 -2.000000e+002 4.500000e+001 -2.855597e+001 -4.780165e+001 -2.000000e+002 4.500000e+001 -2.000000e+002 4.500000e+001
4988500000 -2.000000e+002 4.500000e+001 -2.816870e+001 -5.323631e+001 -2.000000e+002 4.500000e+001 -2.000000e+002 4.500000e+001
4988750000 -2.000000e+002 4.500000e+001 -2.790218e+001 -5.621423e+001 -2.000000e+002 4.500000e+001 -2.000000e+002 4.500000e+001
4989000000 -2.000000e+002 4.500000e+001 -2.775924e+001 -6.153922e+001 -2.000000e+002 4.500000e+001 -2.000000e+002 4.500000e+001
4989250000 -2.000000e+002 4.500000e+001 -2.757303e+001 -6.457191e+001 -2.000000e+002 4.500000e+001 -2.000000e+002 4.500000e+001
4989500000 -2.000000e+002 4.500000e+001 -2.734793e+001 -6.869150e+001 -2.000000e+002 4.500000e+001 -2.000000e+002 4.500000e+001
4989750000 -2.000000e+002 4.500000e+001 -2.706079e+001 -7.232455e+001 -2.000000e+002 4.500000e+001 -2.000000e+002 4.500000e+001
4990000000 -2.000000e+002 4.500000e+001 -2.683816e+001 -7.678561e+001 -2.000000e+002 4.500000e+001 -2.000000e+002 4.500000e+001
4990250000 -2.000000e+002 4.500000e+001 -2.648842e+001 -8.031242e+001 -2.000000e+002 4.500000e+001 -2.000000e+002 4.500000e+001
4990500000 -2.000000e+002 4.500000e+001 -2.623701e+001 -8.437204e+001 -2.000000e+002 4.500000e+001 -2.000000e+002 4.500000e+001
4990750000 -2.000000e+002 4.500000e+001 -2.588661e+001 -8.829215e+001 -2.000000e+002 4.500000e+001 -2.000000e+002 4.500000e+001
4991000000 -2.000000e+002 4.500000e+001 -2.568016e+001 -9.297980e+001 -2.000000e+002 4.500000e+001 -2.000000e+002 4.500000e+001
4991250000 -2.000000e+002 4.500000e+001 -2.518569e+001 -9.794814e+001 -2.000000e+002 4.500000e+001 -2.000000e+002 4.500000e+001
4991500000 -2.000000e+002 4.500000e+001 -2.492083e+001 -1.020942e+002 -2.000000e+002 4.500000e+001 -2.000000e+002 4.500000e+001
4991750000 -2.000000e+002 4.500000e+001 -2.464067e+001 -1.064244e+002 -2.000000e+002 4.500000e+001 -2.000000e+002 4.500000e+001
4992000000 -2.000000e+002 4.500000e+001 -2.423090e+001 -1.110488e+002 -2.000000e+002 4.500000e+001 -2.000000e+002 4.500000e+001
4992250000 -2.000000e+002 4.500000e+001 -2.388573e+001 -1.157898e+002 -2.000000e+002 4.500000e+001 -2.000000e+002 4.500000e+001
4992500000 -2.000000e+002 4.500000e+001 -2.344069e+001 -1.198707e+002 -2.000000e+002 4.500000e+001 -2.000000e+002 4.500000e+001
4992750000 -2.000000e+002 4.500000e+001 -2.314298e+001 -1.245642e+002 -2.000000e+002 4.500000e+001 -2.000000e+002 4.500000e+001
4993000000 -2.000000e+002 4.500000e+001 -2.274059e+001 -1.295691e+002 -2.000000e+002 4.500000e+001 -2.000000e+002 4.500000e+001
4993250000 -2.000000e+002 4.500000e+001 -2.241384e+001 -1.339974e+002 -2.000000e+002 4.500000e+001 -2.000000e+002 4.500000e+001
4993500000 -2.000000e+002 4.500000e+001 -2.195946e+001 -1.384670e+002 -2.000000e+002 4.500000e+001 -2.000000e+002 4.500000e+001
4993750000 -2.000000e+002 4.500000e+001 -2.151458e+001 -1.440219e+002 -2.000000e+002 4.500000e+001 -2.000000e+002 4.500000e+001
4994000000 -2.000000e+002 4.500000e+001 -2.105481e+001 -1.488310e+002 -2.000000e+002 4.500000e+001 -2.000000e+002 4.500000e+001
4994250000 -2.000000e+002 4.500000e+001 -2.065738e+001 -1.532434e+002 -2.000000e+002 4.500000e+001 -2.000000e+002 4.500000e+001
4994500000 -2.000000e+002 4.500000e+001 -2.012904e+001 -1.585625e+002 -2.000000e+002 4.500000e+001 -2.000000e+002 4.500000e+001
4994750000 -2.000000e+002 4.500000e+001 -1.956505e+001 -1.635556e+002 -2.000000e+002 4.500000e+001 -2.000000e+002 4.500000e+001
4995000000 -2.000000e+002 4.500000e+001 -1.904171e+001 -1.691145e+002 -2.000000e+002 4.500000e+001 -2.000000e+002 4.500000e+001
4995250000 -2.000000e+002 4.500000e+001 -1.847113e+001 -1.747564e+002 -2.000000e+002 4.500000e+001 -2.000000e+002 4.500000e+001
4995500000 -2.000000e+002 4.500000e+001 -1.791278e+001 1.793293e+002 -2.000000e+002 4.500000e+001 -2.000000e+002 4.500000e+001
4995750000 -2.000000e+002 4.500000e+001 -1.735890e+001 1.734676e+002 -2.000000e+002 4.500000e+001 -2.000000e+002 4.500000e+001
4996000000 -2.000000e+002 4.500000e+001 -1.667775e+001 1.670351e+002 -2.000000e+002 4.500000e+001 -2.000000e+002 4.500000e+001
4996250000 -2.000000e+002 4.500000e+001 -1.605012e+001 1.602501e+002 -2.000000e+002 4.500000e+001 -2.000000e+002 4.500000e+001
4996500000 -2.000000e+002 4.500000e+001 -1.536809e+001 1.532896e+002 -2.000000e+002 4.500000e+001 -2.000000e+002 4.500000e+001
4996750000 -2.000000e+002 4.500000e+001 -1.466453e+001 1.458474e+002 -2.000000e+002 4.500000e+001 -2.000000e+002 4.500000e+001
4997000000 -2.000000e+002 4.500000e+001 -1.396285e+001 1.378531e+002 -2.000000e+002 4.500000e+001 -2.000000e+002 4.500000e+001
4997250000 -2.000000e+002 4.500000e+001 -1.321907e+001 1.288901e+002 -2.000000e+002 4.500000e+001 -2.000000e+002 4.500000e+001
4997500000 -2.000000e+002 4.500000e+001 -1.252508e+001 1.192021e+002 -2.000000e+002 4.500000e+001 -2.000000e+002 4.500000e+001
4997750000 -2.000000e+002 4.500000e+001 -1.184400e+001 1.086746e+002 -2.000000e+002 4.500000e+001 -2.000000e+002 4.500000e+001
4998000000 -2.000000e+002 4.500000e+001 -1.125031e+001 9.725378e+001 -2.000000e+002 4.500000e+001 -2.000000e+002 4.500000e+001
4998250000 -2.000000e+002 4.500000e+001 -1.081132e+001 8.477829e+001 -2.000000e+002 4.500000e+001 -2.000000e+002 4.500000e+001
4998500000 -2.000000e+002 4.500000e+001 -1.054829e+001 7.186169e+001 -2.000000e+002 4.500000e+001 -2.000000e+002 4.500000e+001
4998750000 -2.000000e+002 4.500000e+001 -1.049519e+001 5.853017e+001 -2.000000e+002 4.500000e+001 -2.000000e+002 4.500000e+001
4999000000 -2.000000e+002 4.500000e+001 -1.064228e+001 4.537431e+001 -2.000000e+002 4.500000e+001 -2.000000e+002 4.500000e+001
4999250000 -2.000000e+002 4.500000e+001 -1.105221e+001 3.269577e+001 -2.000000e+002 4.500000e+001 -2.000000e+002 4.500000e+001
4999500000 -2.000000e+002 4.500000e+001 -1.156642e+001 2.073254e+001 -2.000000e+002 4.500000e+001 -2.000000e+002 4.500000e+001
4999750000 -2.000000e+002 4.500000e+001 -1.216845e+001 1.012263e+001 -2.000000e+002 4.500000e+001 -2.000000e+002 4.500000e+001
5000000000 -2.000000e+002 4.500000e+001 -1.285038e+001 2.244900e-001 -2.000000e+002 4.500000e+001 -2.000000e+002 4.500000e+001
5000250000 -2.000000e+002 4.500000e+001 -1.353998e+001 -8.475566e+000 -2.000000e+002 4.500000e+001 -2.000000e+002 4.500000e+001
5000500000 -2.000000e+002 4.500000e+001 -1.423162e+001 -1.663696e+001 -2.000000e+002 4.500000e+001 -2.000000e+002 4.500000e+001
5000750000 -2.000000e+002 4.500000e+001 -1.490687e+001 -2.433226e+001 -2.000000e+002 4.500000e+001 -2.000000e+002 4.500000e+001
5001000000 -2.000000e+002 4.500000e+001 -1.559616e+001 -3.117999e+001 -2.000000e+002 4.500000e+001 -2.000000e+002 4.500000e+001
5001250000 -2.000000e+002 4.500000e+001 -1.618323e+001 -3.762967e+001 -2.000000e+002 4.500000e+001 -2.000000e+002 4.500000e+001
5001500000 -2.000000e+002 4.500000e+001 -1.678015e+001 -4.364054e+001 -2.000000e+002 4.500000e+001 -2.000000e+002 4.500000e+001
5001750000 -2.000000e+002 4.500000e+001 -1.736513e+001 -4.972583e+001 -2.000000e+002 4.500000e+001 -2.000000e+002 4.500000e+001
5002000000 -2.000000e+002 4.500000e+001 -1.784758e+001 -5.498296e+001 -2.000000e+002 4.500000e+001 -2.000000e+002 4.500000e+001
5002250000 -2.000000e+002 4.500000e+001 -1.827348e+001 -6.018866e+001 -2.000000e+002 4.500000e+001 -2.000000e+002 4.500000e+001
5002500000 -2.000000e+002 4.500000e+001 -1.878576e+001 -6.602932e+001 -2.000000e+002 4.500000e+001 -2.000000e+002 4.500000e+001
5002750000 -2.000000e+002 4.500000e+001 -1.915260e+001 -7.067501e+001 -2.000000e+002 4.500000e+001 -2.000000e+002 4.500000e+001
5003000000 -2.000000e+002 4.500000e+001 -1.957705e+001 -7.604263e+001 -2.000000e+002 4.500000e+001 -2.000000e+002 4.500000e+001
5003250000 -2.000000e+002 4.500000e+001 -1.990627e+001 -8.124080e+001 -2.000000e+002 4.500000e+001 -2.000000e+002 4.500000e+001
5003500000 -2.000000e+002 4.500000e+001 -2.021676e+001 -8.642033e+001 -2.000000e+002 4.500000e+001 -2.000000e+002 4.500000e+001
5003750000 -2.000000e+002 4.500000e+001 -2.052361e+001 -9.134066e+001 -2.000000e+002 4.500000e+001 -2.000000e+002 4.500000e+001
5004000000 -2.000000e+002 4.500000e+001 -2.082404e+001 -9.626693e+001 -2.000000e+002 4.500000e+001 -2.000000e+002 4.500000e+001
5004250000 -2.000000e+002 4.500000e+001 -2.114126e+001 -1.015199e+002 -2.000000e+002 4.500000e+001 -2.000000e+002 4.500000e+001
5004500000 -2.000000e+002 4.500000e+001 -2.147900e+001 -1.062900e+002 -2.000000e+002 4.500000e+001 -2.000000e+002 4.500000e+001
5004750000 -2.000000e+002 4.500000e+001 -2.171096e+001 -1.109805e+002 -2.000000e+002 4.500000e+001 -2.000000e+002 4.500000e+001
5005000000 -2.000000e+002 4.500000e+001 -2.205600e+001 -1.157109e+002 -2.000000e+002 4.500000e+001 -2.000000e+002 4.500000e+001
5005250000 -2.000000e+002 4.500000e+001 -2.227131e+001 -1.211139e+002 -2.000000e+002 4.500000e+001 -2.000000e+002 4.500000e+001
5005500000 -2.000000e+002 4.500000e+001 -2.251868e+001 -1.259046e+002 -2.000000e+002 4.500000e+001 -2.000000e+002 4.500000e+001
5005750000 -2.000000e+002 4.500000e+001 -2.278252e+001 -1.313085e+002 -2.000000e+002 4.500000e+001 -2.000000e+002 4.500000e+001
5006000000 -2.000000e+002 4.500000e+001 -2.307496e+001 -1.359237e+002 -2.000000e+002 4.500000e+001 -2.000000e+002 4.500000e+001
5006250000 -2.000000e+002 4.500000e+001 -2.339201e+001 -1.407379e+002 -2.000000e+002 4.500000e+001 -2.000000e+002 4.500000e+001
5006500000 -2.000000e+002 4.500000e+001 -2.375959e+001 -1.460995e+002 -2.000000e+002 4.500000e+001 -2.000000e+002 4.500000e+001
5006750000 -2.000000e+002 4.500000e+001 -2.405781e+001 -1.501610e+002 -2.000000e+002 4.500000e+001 -2.000000e+002 4.500000e+001
5007000000 -2.000000e+002 4.500000e+001 -2.443086e+001 -1.546564e+002 -2.000000e+002 4.500000e+001 -2.000000e+002 4.500000e+001
5007250000 -2.000000e+002 4.500000e+001 -2.475784e+001 -1.593339e+002 -2.000000e+002 4.500000e+001 -2.000000e+002 4.500000e+001
5007500000 -2.000000e+002 4.500000e+001 -2.486867e+001 -1.635979e+002 -2.000000e+002 4.500000e+001 -2.000000e+002 4.500000e+001
5007750000 -2.000000e+002 4.500000e+001 -2.519320e+001 -1.680034e+002 -2.000000e+002 4.500000e+001 -2.000000e+002 4.500000e+001
5008000000 -2.000000e+002 4.500000e+001 -2.537870e+001 -1.715084e+002 -2.000000e+002 4.500000e+001 -2.000000e+002 4.500000e+001
5008250000 -2.000000e+002 4.500000e+001 -2.566458e+001 -1.752278e+002 -2.000000e+002 4.500000e+001 -2.000000e+002 4.500000e+001
5008500000 -2.000000e+002 4.500000e+001 -2.587131e+001 1.799490e+002 -2.000000e+002 4.500000e+001 -2.000000e+002 4.500000e+001
5008750000 -2.000000e+002 4.500000e+001 -2.597892e+001 1.761628e+002 -2.000000e+002 4.500000e+001 -2.000000e+002 4.500000e+001
5009000000 -2.000000e+002 4.500000e+001 -2.611254e+001 1.724935e+002 -2.000000e+002 4.500000e+001 -2.000000e+002 4.500000e+001
5009250000 -2.000000e+002 4.500000e+001 -2.625200e+001 1.680638e+002 -2.000000e+002 4.500000e+001 -2.000000e+002 4.500000e+001
5009500000 -2.000000e+002 4.500000e+001 -2.628525e+001 1.632328e+002 -2.000000e+002 4.500000e+001 -2.000000e+002 4.500000e+001
5009750000 -2.000000e+002 4.500000e+001 -2.639041e+001 1.588392e+002 -2.000000e+002 4.500000e+001 -2.000000e+002 4.500000e+001
5010000000 -2.000000e+002 4.500000e+001 -2.662098e+001 1.540350e+002 -2.000000e+002 4.500000e+001 -2.000000e+002 4.500000e+001
5010250000 -2.000000e+002 4.500000e+001 -2.694808e+001 1.490549e+002 -2.000000e+002 4.500000e+001 -2.000000e+002 4.500000e+001
5010500000 -2.000000e+002 4.500000e+001 -2.705591e+001 1.448087e+002 -2.000000e+002 4.500000e+001 -2.000000e+002 4.500000e+001
5010750000 -2.000000e+002 4.500000e+001 -2.712556e+001 1.397334e+002 -2.000000e+002 4.500000e+001 -2.000000e+002 4.500000e+001
5011000000 -2.000000e+002 4.500000e+001 -2.732617e+001 1.369794e+002 -2.000000e+002 4.500000e+001 -2.000000e+002 4.500000e+001
5011250000 -2.000000e+002 4.500000e+001 -2.742449e+001 1.314115e+002 -2.000000e+002 4.500000e+001 -2.000000e+002 4.500000e+001
5011500000 -2.000000e+002 4.500000e+001 -2.765156e+001 1.277226e+002 -2.000000e+002 4.500000e+001 -2.000000e+002 4.500000e+001
5011750000 -2.000000e+002 4.500000e+001 -2.774520e+001 1.229589e+002 -2.000000e+002 4.500000e+001 -2.000000e+002 4.500000e+001
5012000000 -2.000000e+002 4.500000e+001 -2.784943e+001 1.187607e+002 -2.000000e+002 4.500000e+001 -2.000000e+002 4.500000e+001
5012250000 -2.000000e+002 4.500000e+001 -2.804131e+001 1.136128e+002 -2.000000e+002 4.500000e+001 -2.000000e+002 4.500000e+001
5012500000 -2.000000e+002 4.500000e+001 -2.823637e+001 1.091121e+002 -2.000000e+002 4.500000e+001 -2.000000e+002 4.500000e+001
5012750000 -2.000000e+002 4.500000e+001 -2.833238e+001 1.041929e+002 -2.000000e+002 4.500000e+001 -2.000000e+002 4.500000e+001
5013000000 -2.000000e+002 4.500000e+001 -2.843038e+001 9.912743e+001 -2.000000e+002 4.500000e+001 -2.000000e+002 4.500000e+001
5013250000 -2.000000e+002 4.500000e+001 -2.876537e+001 9.471346e+001 -2.000000e+002 4.500000e+001 -2.000000e+002 4.500000e+001
5013500000 -2.000000e+002 4.500000e+001 -2.883533e+001 8.889856e+001 -2.000000e+002 4.500000e+001 -2.000000e+002 4.500000e+001
