!Agilent Technologies,N5230A,MY45001652,A.07.50.57
!Agilent N5230A: A.07.50.57
!Date: Monday, September 28, 2015 11:05:18
!Correction: S11(Full 2 Port(1,2)) 
!S21(Full 2 Port(1,2)) 
!S12(Full 2 Port(1,2)) 
!S22(Full 2 Port(1,2)) 
!S2P File: Measurements: S11, S21, S12, S22:
# Hz S  dB   R 50
4980600000 -2.746128e+001 1.198014e+002 -3.217202e+001 2.807097e+001 -7.245950e+001 9.777671e+001 -1.426074e+001 -1.670930e+002
4980850000 -2.792256e+001 1.246149e+002 -3.204468e+001 2.649674e+001 -7.289033e+001 -1.573645e+002 -1.421206e+001 -1.664923e+002
4981100000 -2.841068e+001 1.292342e+002 -3.192447e+001 2.341397e+001 -7.561407e+001 1.452384e+002 -1.417404e+001 -1.659705e+002
4981350000 -2.886872e+001 1.352425e+002 -3.181780e+001 2.136307e+001 -7.377318e+001 6.017149e+001 -1.412140e+001 -1.652355e+002
4981600000 -2.929631e+001 1.412129e+002 -3.171458e+001 1.909831e+001 -9.081399e+001 -4.724633e+001 -1.408743e+001 -1.645429e+002
4981850000 -2.963598e+001 1.473154e+002 -3.181946e+001 1.562646e+001 -8.120988e+001 -1.725349e+002 -1.406454e+001 -1.640494e+002
4982100000 -2.990322e+001 1.542165e+002 -3.174882e+001 1.359618e+001 -7.876767e+001 1.687627e+002 -1.401027e+001 -1.634530e+002
4982350000 -3.006796e+001 1.615022e+002 -3.164609e+001 1.143516e+001 -7.214767e+001 4.187399e+001 -1.399326e+001 -1.629186e+002
4982600000 -3.014564e+001 1.691427e+002 -3.150085e+001 1.033703e+001 -8.172674e+001 7.421909e+000 -1.395956e+001 -1.622925e+002
4982850000 -3.003601e+001 1.761435e+002 -3.137509e+001 7.207964e+000 -7.402953e+001 -1.343579e+002 -1.394058e+001 -1.615850e+002
4983100000 -2.994120e+001 -1.768124e+002 -3.133704e+001 5.423544e+000 -8.871303e+001 -1.199495e+002 -1.390184e+001 -1.611332e+002
4983350000 -2.971269e+001 -1.693802e+002 -3.121564e+001 2.610996e+000 -8.318793e+001 -1.074462e+002 -1.388827e+001 -1.604886e+002
4983600000 -2.933731e+001 -1.625044e+002 -3.125370e+001 1.099058e+000 -7.964399e+001 -1.607484e+002 -1.387608e+001 -1.597382e+002
4983850000 -2.900698e+001 -1.564864e+002 -3.104499e+001 -9.804437e-001 -7.937894e+001 -1.133007e+002 -1.386268e+001 -1.591422e+002
4984100000 -2.857307e+001 -1.507593e+002 -3.095444e+001 -2.946503e+000 -7.794579e+001 -7.394110e+001 -1.385597e+001 -1.585563e+002
4984350000 -2.815840e+001 -1.458147e+002 -3.081689e+001 -5.550987e+000 -7.920358e+001 1.173919e+002 -1.384043e+001 -1.579097e+002
4984600000 -2.764455e+001 -1.410427e+002 -3.083579e+001 -7.763728e+000 -8.524239e+001 -5.491776e+001 -1.382956e+001 -1.572656e+002
4984850000 -2.717232e+001 -1.365901e+002 -3.068177e+001 -9.581153e+000 -9.283224e+001 -1.105011e+002 -1.382130e+001 -1.566642e+002
4985100000 -2.668330e+001 -1.325873e+002 -3.053253e+001 -1.168382e+001 -7.332552e+001 1.546026e+002 -1.382848e+001 -1.559249e+002
4985350000 -2.623472e+001 -1.290116e+002 -3.039678e+001 -1.342893e+001 -7.337648e+001 5.320513e+001 -1.380700e+001 -1.554353e+002
4985600000 -2.576298e+001 -1.257326e+002 -3.028670e+001 -1.591148e+001 -7.955608e+001 -1.517990e+002 -1.380398e+001 -1.548170e+002
4985850000 -2.529964e+001 -1.225770e+002 -3.018109e+001 -1.789465e+001 -9.053117e+001 -3.269329e+001 -1.379645e+001 -1.541114e+002
4986100000 -2.486219e+001 -1.198957e+002 -3.003790e+001 -1.970350e+001 -7.447218e+001 6.479212e+001 -1.381905e+001 -1.535383e+002
4986350000 -2.444566e+001 -1.170518e+002 -2.995987e+001 -2.255664e+001 -8.650616e+001 8.124027e+001 -1.382925e+001 -1.529702e+002
4986600000 -2.405266e+001 -1.145835e+002 -2.968229e+001 -2.468366e+001 -7.547989e+001 1.570957e+002 -1.382351e+001 -1.523674e+002
4986850000 -2.365521e+001 -1.123186e+002 -2.963595e+001 -2.687079e+001 -8.273451e+001 -1.767749e+002 -1.383970e+001 -1.516580e+002
4987100000 -2.329209e+001 -1.098590e+002 -2.958412e+001 -2.948026e+001 -7.728613e+001 2.182898e+001 -1.385344e+001 -1.510608e+002
4987350000 -2.292188e+001 -1.077076e+002 -2.940229e+001 -3.175912e+001 -7.834814e+001 -9.095162e+001 -1.386438e+001 -1.503932e+002
4987600000 -2.259255e+001 -1.057584e+002 -2.930867e+001 -3.425418e+001 -7.782494e+001 1.584230e+002 -1.388682e+001 -1.497875e+002
4987850000 -2.220535e+001 -1.038517e+002 -2.917329e+001 -3.627369e+001 -7.547520e+001 1.437490e+002 -1.387357e+001 -1.497638e+002
4988100000 -2.187065e+001 -1.019734e+002 -2.903456e+001 -3.860718e+001 -7.591692e+001 -1.719961e+002 -1.387762e+001 -1.489283e+002
4988350000 -2.159716e+001 -1.002370e+002 -2.897418e+001 -4.083197e+001 -7.526331e+001 -1.515462e+002 -1.389254e+001 -1.483379e+002
4988600000 -2.127500e+001 -9.866164e+001 -2.884387e+001 -4.296539e+001 -7.777913e+001 1.366925e+002 -1.392875e+001 -1.477693e+002
4988850000 -2.099708e+001 -9.692342e+001 -2.881068e+001 -4.439520e+001 -7.661098e+001 4.633271e+001 -1.393078e+001 -1.469773e+002
4989100000 -2.072054e+001 -9.530871e+001 -2.870077e+001 -4.664191e+001 -8.123510e+001 8.062572e+001 -1.396387e+001 -1.464257e+002
4989350000 -2.045165e+001 -9.374302e+001 -2.854942e+001 -4.814794e+001 -8.738245e+001 8.345679e+001 -1.397686e+001 -1.458071e+002
4989600000 -2.021153e+001 -9.223614e+001 -2.847096e+001 -5.081895e+001 -7.577113e+001 2.139039e+001 -1.402458e+001 -1.450698e+002
4989850000 -1.995063e+001 -9.071389e+001 -2.832118e+001 -5.134374e+001 -8.336312e+001 1.475806e+002 -1.405505e+001 -1.446061e+002
4990100000 -1.970511e+001 -8.928643e+001 -2.794534e+001 -5.365937e+001 -7.288822e+001 -1.481780e+002 -1.408918e+001 -1.438978e+002
4990350000 -1.948093e+001 -8.802988e+001 -2.785315e+001 -5.520579e+001 -7.744705e+001 -1.210529e+002 -1.412630e+001 -1.432282e+002
4990600000 -1.925378e+001 -8.656230e+001 -2.749681e+001 -5.716412e+001 -7.133374e+001 9.657005e+001 -1.415923e+001 -1.426395e+002
4990850000 -1.906590e+001 -8.523008e+001 -2.725512e+001 -6.007138e+001 -8.249946e+001 6.746542e+001 -1.420156e+001 -1.419486e+002
4991100000 -1.885287e+001 -8.397379e+001 -2.708031e+001 -6.248126e+001 -7.989439e+001 1.405708e+002 -1.424374e+001 -1.413677e+002
4991350000 -1.865195e+001 -8.270901e+001 -2.681120e+001 -6.538177e+001 -7.495839e+001 1.375517e+002 -1.429495e+001 -1.406648e+002
4991600000 -1.845364e+001 -8.137685e+001 -2.667106e+001 -6.782922e+001 -8.390904e+001 1.875919e+001 -1.434377e+001 -1.402141e+002
4991850000 -1.826011e+001 -8.016583e+001 -2.648085e+001 -7.037357e+001 -7.742442e+001 -1.024386e+002 -1.439148e+001 -1.396725e+002
4992100000 -1.809186e+001 -7.896245e+001 -2.627264e+001 -7.319483e+001 -7.103102e+001 -1.788115e+002 -1.442816e+001 -1.389007e+002
4992350000 -1.790768e+001 -7.774760e+001 -2.612327e+001 -7.558824e+001 -7.780215e+001 8.185363e+001 -1.448511e+001 -1.385101e+002
4992600000 -1.774785e+001 -7.651674e+001 -2.593453e+001 -7.769872e+001 -8.037277e+001 -6.182076e+001 -1.454705e+001 -1.377990e+002
4992850000 -1.758451e+001 -7.536241e+001 -2.577015e+001 -8.060846e+001 -8.496107e+001 -7.807545e+001 -1.461725e+001 -1.371819e+002
4993100000 -1.743229e+001 -7.418696e+001 -2.559053e+001 -8.287319e+001 -7.652127e+001 8.826801e+001 -1.468044e+001 -1.364986e+002
4993350000 -1.728098e+001 -7.307310e+001 -2.537450e+001 -8.502882e+001 -7.875227e+001 8.823792e+001 -1.475181e+001 -1.359583e+002
4993600000 -1.712470e+001 -7.186651e+001 -2.522938e+001 -8.753847e+001 -7.890322e+001 4.745888e+001 -1.480121e+001 -1.354059e+002
4993850000 -1.699940e+001 -7.073979e+001 -2.498426e+001 -8.985427e+001 -7.602213e+001 1.911720e+001 -1.490251e+001 -1.348970e+002
4994100000 -1.685151e+001 -6.963622e+001 -2.480257e+001 -9.214946e+001 -7.892258e+001 -2.970334e+000 -1.499609e+001 -1.341541e+002
4994350000 -1.672415e+001 -6.859424e+001 -2.453944e+001 -9.461237e+001 -7.489649e+001 -9.532555e+001 -1.507194e+001 -1.335222e+002
4994600000 -1.660356e+001 -6.743329e+001 -2.435267e+001 -9.720770e+001 -7.832508e+001 1.067730e+002 -1.513950e+001 -1.330242e+002
4994850000 -1.646281e+001 -6.636891e+001 -2.408505e+001 -9.982779e+001 -7.813432e+001 -1.242002e+002 -1.522566e+001 -1.324010e+002
4995100000 -1.635542e+001 -6.526446e+001 -2.390609e+001 -1.023299e+002 -8.972945e+001 1.179034e+002 -1.532714e+001 -1.318067e+002
4995350000 -1.623468e+001 -6.427427e+001 -2.363314e+001 -1.051129e+002 -7.416722e+001 -4.597230e+001 -1.541731e+001 -1.314673e+002
4995600000 -1.612739e+001 -6.318313e+001 -2.342773e+001 -1.076423e+002 -8.074227e+001 -1.376658e+002 -1.551000e+001 -1.308128e+002
4995850000 -1.601739e+001 -6.216427e+001 -2.317727e+001 -1.103475e+002 -8.389462e+001 4.460480e+001 -1.561494e+001 -1.301985e+002
4996100000 -1.591203e+001 -6.113094e+001 -2.297256e+001 -1.127722e+002 -9.130137e+001 -7.287133e+000 -1.571083e+001 -1.297653e+002
4996350000 -1.580273e+001 -6.006739e+001 -2.279069e+001 -1.154144e+002 -8.249975e+001 -1.329931e+002 -1.581358e+001 -1.291441e+002
4996600000 -1.571135e+001 -5.908625e+001 -2.249202e+001 -1.177703e+002 -7.362656e+001 1.654579e+002 -1.591862e+001 -1.284858e+002
4996850000 -1.561862e+001 -5.805902e+001 -2.222823e+001 -1.205921e+002 -7.690756e+001 5.385558e+001 -1.606068e+001 -1.281499e+002
4997100000 -1.553238e+001 -5.705442e+001 -2.198508e+001 -1.231780e+002 -7.417348e+001 -1.670989e+002 -1.617490e+001 -1.276815e+002
4997350000 -1.543753e+001 -5.603384e+001 -2.169301e+001 -1.256737e+002 -7.637650e+001 3.247022e+001 -1.629633e+001 -1.270429e+002
4997600000 -1.534980e+001 -5.499090e+001 -2.149330e+001 -1.281726e+002 -7.585879e+001 4.752525e+001 -1.640179e+001 -1.267275e+002
4997850000 -1.527311e+001 -5.398458e+001 -2.116204e+001 -1.309599e+002 -8.205092e+001 -7.696910e+001 -1.657854e+001 -1.262060e+002
4998100000 -1.519983e+001 -5.300668e+001 -2.090180e+001 -1.335513e+002 -8.164321e+001 -4.254331e+001 -1.670540e+001 -1.255854e+002
4998350000 -1.511912e+001 -5.209925e+001 -2.060988e+001 -1.364278e+002 -7.300298e+001 8.551167e+001 -1.684002e+001 -1.252527e+002
4998600000 -1.504782e+001 -5.107765e+001 -2.026609e+001 -1.389851e+002 -7.706997e+001 1.686914e+002 -1.699103e+001 -1.248318e+002
4998850000 -1.497285e+001 -5.008645e+001 -1.994998e+001 -1.414106e+002 -7.186985e+001 -6.720195e+000 -1.713220e+001 -1.243996e+002
4999100000 -1.490290e+001 -4.907840e+001 -1.961393e+001 -1.441252e+002 -8.014449e+001 1.121830e+002 -1.727554e+001 -1.238331e+002
4999350000 -1.483881e+001 -4.815929e+001 -1.925550e+001 -1.466829e+002 -7.242264e+001 -5.624076e+001 -1.745371e+001 -1.236838e+002
4999600000 -1.477479e+001 -4.723620e+001 -1.888274e+001 -1.495383e+002 -7.397515e+001 -8.766483e+001 -1.761222e+001 -1.231307e+002
4999850000 -1.471266e+001 -4.623819e+001 -1.847670e+001 -1.522600e+002 -7.371829e+001 7.761159e+001 -1.780497e+001 -1.228098e+002
5000100000 -1.465001e+001 -4.536401e+001 -1.806946e+001 -1.551188e+002 -7.431679e+001 9.189455e+001 -1.799082e+001 -1.223243e+002
5000350000 -1.459725e+001 -4.486997e+001 -1.762373e+001 -1.588138e+002 -7.874825e+001 -2.974764e+001 -1.820565e+001 -1.221653e+002
5000600000 -1.454868e+001 -4.400286e+001 -1.716718e+001 -1.620128e+002 -7.454372e+001 4.752047e+001 -1.835638e+001 -1.221189e+002
5000850000 -1.448914e+001 -4.297449e+001 -1.668745e+001 -1.651230e+002 -7.974861e+001 -1.626328e+002 -1.855390e+001 -1.217333e+002
5001100000 -1.443834e+001 -4.213523e+001 -1.618677e+001 -1.685726e+002 -7.076539e+001 9.091454e+001 -1.873152e+001 -1.212838e+002
5001350000 -1.438973e+001 -4.121056e+001 -1.571443e+001 -1.720397e+002 -7.730219e+001 3.019049e+001 -1.891882e+001 -1.209968e+002
5001600000 -1.434404e+001 -4.028719e+001 -1.519489e+001 -1.754546e+002 -8.425277e+001 -1.393152e+002 -1.913505e+001 -1.208449e+002
5001850000 -1.430629e+001 -3.940455e+001 -1.465369e+001 -1.792451e+002 -7.744452e+001 -1.875832e+001 -1.931582e+001 -1.206036e+002
5002100000 -1.426369e+001 -3.845661e+001 -1.411388e+001 1.769363e+002 -8.235482e+001 -1.432190e+002 -1.952526e+001 -1.206216e+002
5002350000 -1.422133e+001 -3.757796e+001 -1.352490e+001 1.729966e+002 -7.761209e+001 -1.003749e+002 -1.973482e+001 -1.202655e+002
5002600000 -1.418815e+001 -3.667104e+001 -1.293596e+001 1.688520e+002 -7.579215e+001 3.132023e+001 -1.993694e+001 -1.202519e+002
5002850000 -1.414549e+001 -3.573841e+001 -1.227087e+001 1.645031e+002 -7.365024e+001 -8.038510e+001 -2.021027e+001 -1.199392e+002
5003100000 -1.412158e+001 -3.479807e+001 -1.159383e+001 1.599134e+002 -7.642360e+001 1.921652e+001 -2.042339e+001 -1.198113e+002
5003350000 -1.408381e+001 -3.399540e+001 -1.082805e+001 1.550427e+002 -7.961153e+001 1.430806e+002 -2.067508e+001 -1.198314e+002
5003600000 -1.405487e+001 -3.308812e+001 -1.004118e+001 1.494900e+002 -7.793841e+001 9.138988e+001 -2.094332e+001 -1.199605e+002
5003850000 -1.402631e+001 -3.210337e+001 -9.207492e+000 1.435234e+002 -7.284614e+001 1.434574e+002 -2.120119e+001 -1.200367e+002
5004100000 -1.399990e+001 -3.125259e+001 -8.338302e+000 1.366557e+002 -7.642425e+001 2.851401e+001 -2.148953e+001 -1.198304e+002
5004350000 -1.398302e+001 -3.030047e+001 -7.430736e+000 1.288812e+002 -7.921409e+001 2.615602e+001 -2.175443e+001 -1.201350e+002
5004600000 -1.396233e+001 -2.942494e+001 -6.521180e+000 1.198441e+002 -9.901768e+001 -9.040952e+001 -2.201063e+001 -1.201157e+002
5004850000 -1.393692e+001 -2.851610e+001 -5.687705e+000 1.094514e+002 -7.236062e+001 -9.475579e+001 -2.235496e+001 -1.204528e+002
5005100000 -1.392474e+001 -2.765151e+001 -4.976840e+000 9.748158e+001 -7.820204e+001 2.539013e+001 -2.266641e+001 -1.211484e+002
5005350000 -1.391012e+001 -2.674634e+001 -4.502237e+000 8.409033e+001 -7.235590e+001 -2.746651e+001 -2.299016e+001 -1.211984e+002
5005600000 -1.389310e+001 -2.583758e+001 -4.354430e+000 7.012653e+001 -7.657057e+001 1.543004e+002 -2.332428e+001 -1.216305e+002
5005850000 -1.388082e+001 -2.494414e+001 -4.542429e+000 5.611887e+001 -8.135497e+001 -1.020911e+002 -2.369468e+001 -1.228469e+002
5006100000 -1.386749e+001 -2.399552e+001 -5.069136e+000 4.314832e+001 -8.174405e+001 -8.585149e+001 -2.401060e+001 -1.233628e+002
5006350000 -1.386155e+001 -2.315757e+001 -5.797698e+000 3.158767e+001 -8.021906e+001 1.125550e+001 -2.436671e+001 -1.238590e+002
5006600000 -1.385862e+001 -2.223000e+001 -6.631107e+000 2.142269e+001 -7.296560e+001 7.682914e+001 -2.478735e+001 -1.252122e+002
5006850000 -1.384918e+001 -2.135025e+001 -7.513006e+000 1.286062e+001 -7.704126e+001 -7.846673e+001 -2.519743e+001 -1.262739e+002
5007100000 -1.384337e+001 -2.043552e+001 -8.383877e+000 5.386530e+000 -8.538848e+001 -1.485313e+002 -2.558510e+001 -1.276913e+002
5007350000 -1.384042e+001 -1.955219e+001 -9.219408e+000 -1.054135e+000 -8.080099e+001 1.398091e+001 -2.600451e+001 -1.293517e+002
5007600000 -1.385097e+001 -1.864673e+001 -1.000996e+001 -6.817080e+000 -8.176057e+001 -3.948471e+001 -2.645396e+001 -1.308687e+002
5007850000 -1.384701e+001 -1.777576e+001 -1.073637e+001 -1.211166e+001 -7.437261e+001 1.752307e+002 -2.684532e+001 -1.334577e+002
5008100000 -1.384926e+001 -1.687052e+001 -1.141310e+001 -1.681088e+001 -8.109270e+001 5.298277e+001 -2.727172e+001 -1.357828e+002
5008350000 -1.385248e+001 -1.592209e+001 -1.202835e+001 -2.128502e+001 -1.046442e+002 -4.270868e+001 -2.767928e+001 -1.387025e+002
5008600000 -1.385420e+001 -1.506291e+001 -1.261537e+001 -2.552797e+001 -8.105219e+001 1.647984e+002 -2.801292e+001 -1.413516e+002
5008850000 -1.387387e+001 -1.416078e+001 -1.317356e+001 -2.955393e+001 -8.046301e+001 5.073488e+001 -2.835132e+001 -1.447185e+002
5009100000 -1.389149e+001 -1.321182e+001 -1.368225e+001 -3.346769e+001 -7.719190e+001 -8.506262e-001 -2.881512e+001 -1.487627e+002
5009350000 -1.389630e+001 -1.234882e+001 -1.417959e+001 -3.735897e+001 -7.519354e+001 5.112110e+000 -2.902475e+001 -1.530022e+002
5009600000 -1.390959e+001 -1.140357e+001 -1.464213e+001 -4.112358e+001 -7.740630e+001 -7.812075e+001 -2.946601e+001 -1.570468e+002
5009850000 -1.392700e+001 -1.060168e+001 -1.508164e+001 -4.464328e+001 -7.575954e+001 -1.685638e+002 -2.953803e+001 -1.614739e+002
5010100000 -1.394444e+001 -9.597188e+000 -1.550124e+001 -4.827410e+001 -7.339963e+001 3.472739e+001 -2.964674e+001 -1.662526e+002
5010350000 -1.397086e+001 -8.665044e+000 -1.593898e+001 -5.180582e+001 -7.266712e+001 -4.449670e+001 -2.963186e+001 -1.712635e+002
5010600000 -1.399681e+001 -7.788400e+000 -1.631950e+001 -5.524091e+001 -8.028144e+001 1.270682e+001 -2.961982e+001 -1.761602e+002
5010850000 -1.401875e+001 -6.828382e+000 -1.672916e+001 -5.857550e+001 -8.185711e+001 1.369067e+002 -2.945772e+001 1.787189e+002
5011100000 -1.405449e+001 -5.920896e+000 -1.710519e+001 -6.198966e+001 -7.928731e+001 -1.063112e+002 -2.924956e+001 1.737000e+002
5011350000 -1.407291e+001 -5.048843e+000 -1.748330e+001 -6.505753e+001 -7.936535e+001 -1.156055e+002 -2.905553e+001 1.697044e+002
5011600000 -1.409628e+001 -4.059114e+000 -1.783027e+001 -6.822878e+001 -9.225356e+001 2.385242e+001 -2.873159e+001 1.661587e+002
5011850000 -1.412868e+001 -3.180035e+000 -1.816366e+001 -7.127843e+001 -7.710701e+001 1.668011e+002 -2.832438e+001 1.619897e+002
5012100000 -1.417396e+001 -2.245008e+000 -1.848882e+001 -7.426357e+001 -7.948124e+001 1.663349e+002 -2.780035e+001 1.588453e+002
5012350000 -1.420930e+001 -1.281669e+000 -1.877855e+001 -7.711378e+001 -8.252959e+001 -1.196036e+002 -2.741017e+001 1.562793e+002
5012600000 -1.424470e+001 -3.547433e-001 -1.908476e+001 -8.042995e+001 -7.587428e+001 -1.162776e+002 -2.704442e+001 1.536657e+002
5012850000 -1.433469e+001 4.750551e-001 -1.938726e+001 -8.342858e+001 -8.532686e+001 -8.705350e+001 -2.662369e+001 1.513242e+002
5013100000 -1.437980e+001 1.409730e+000 -1.969539e+001 -8.646991e+001 -7.222938e+001 -1.030783e+002 -2.625958e+001 1.493648e+002
5013350000 -1.442358e+001 2.364408e+000 -1.998492e+001 -8.969292e+001 -7.588227e+001 9.507215e+001 -2.579146e+001 1.477453e+002
5013600000 -1.446975e+001 3.342464e+000 -2.029162e+001 -9.278747e+001 -1.026705e+002 -1.316561e+002 -2.546566e+001 1.465907e+002
5013850000 -1.451528e+001 4.249417e+000 -2.061993e+001 -9.570007e+001 -8.434103e+001 4.423680e+001 -2.507998e+001 1.449297e+002
5014100000 -1.456363e+001 5.231842e+000 -2.093848e+001 -9.856264e+001 -7.452581e+001 1.799139e+002 -2.472475e+001 1.436460e+002
5014350000 -1.461718e+001 6.165578e+000 -2.118486e+001 -1.011970e+002 -7.937031e+001 -1.590886e+002 -2.431272e+001 1.434419e+002
5014600000 -1.468189e+001 7.127892e+000 -2.148676e+001 -1.036093e+002 -8.993644e+001 1.280310e+002 -2.395944e+001 1.423819e+002
5014850000 -1.473321e+001 8.114988e+000 -2.174794e+001 -1.063298e+002 -7.698215e+001 -9.012946e+001 -2.365158e+001 1.418235e+002
5015100000 -1.479086e+001 9.069300e+000 -2.204350e+001 -1.089747e+002 -7.645954e+001 -8.385860e+001 -2.328608e+001 1.414234e+002
5015350000 -1.485703e+001 1.006739e+001 -2.230044e+001 -1.117025e+002 -8.259761e+001 -1.521709e+001 -2.299659e+001 1.404592e+002
5015600000 -1.491654e+001 1.103222e+001 -2.255241e+001 -1.138564e+002 -7.082825e+001 6.339896e+001 -2.264157e+001 1.400388e+002
5015850000 -1.499160e+001 1.209228e+001 -2.278850e+001 -1.160767e+002 -7.280627e+001 -4.603495e+001 -2.235088e+001 1.399601e+002
5016100000 -1.505912e+001 1.299207e+001 -2.302946e+001 -1.184673e+002 -8.662687e+001 1.229361e+001 -2.206719e+001 1.398202e+002
5016350000 -1.513088e+001 1.398213e+001 -2.322207e+001 -1.209723e+002 -7.710458e+001 4.148642e+001 -2.177120e+001 1.395034e+002
5016600000 -1.520342e+001 1.506684e+001 -2.344537e+001 -1.230089e+002 -7.939798e+001 -4.085588e+001 -2.145244e+001 1.393785e+002
5016850000 -1.529191e+001 1.600539e+001 -2.363250e+001 -1.249435e+002 -8.148155e+001 1.863137e+001 -2.120241e+001 1.391807e+002
5017100000 -1.536959e+001 1.708383e+001 -2.380580e+001 -1.275206e+002 -7.880453e+001 3.174619e+001 -2.097128e+001 1.392880e+002
5017350000 -1.544086e+001 1.812300e+001 -2.395582e+001 -1.298539e+002 -7.915447e+001 -2.953233e+000 -2.071553e+001 1.393312e+002
5017600000 -1.553631e+001 1.905767e+001 -2.410093e+001 -1.320126e+002 -7.720306e+001 1.207533e+002 -2.047082e+001 1.393910e+002
5017850000 -1.562707e+001 2.010063e+001 -2.425058e+001 -1.342513e+002 -7.784327e+001 -3.630787e+000 -2.023139e+001 1.396711e+002
5018100000 -1.571867e+001 2.127021e+001 -2.436830e+001 -1.366931e+002 -8.431197e+001 -1.489541e+002 -2.001962e+001 1.398129e+002
