!Agilent Technologies,N5230A,MY45001652,A.07.50.57
!Agilent N5230A: A.07.50.57
!Date: Monday, September 28, 2015 13:32:15
!Correction: S11(Off) 
!S21(Off) 
!S12(Off) 
!S22(Off) 
!S2P File: Measurements: S11, S21, S12, S22:
# Hz S  dB   R 50
4819000000 -2.000000e+002 4.500000e+001 -3.772554e+001 2.861317e+001 -2.000000e+002 4.500000e+001 -2.000000e+002 4.500000e+001
4819250000 -2.000000e+002 4.500000e+001 -3.758575e+001 2.538190e+001 -2.000000e+002 4.500000e+001 -2.000000e+002 4.500000e+001
4819500000 -2.000000e+002 4.500000e+001 -3.739655e+001 1.919616e+001 -2.000000e+002 4.500000e+001 -2.000000e+002 4.500000e+001
4819750000 -2.000000e+002 4.500000e+001 -3.763061e+001 1.595457e+001 -2.000000e+002 4.500000e+001 -2.000000e+002 4.500000e+001
4820000000 -2.000000e+002 4.500000e+001 -3.741575e+001 1.333422e+001 -2.000000e+002 4.500000e+001 -2.000000e+002 4.500000e+001
4820250000 -2.000000e+002 4.500000e+001 -3.728962e+001 6.383249e+000 -2.000000e+002 4.500000e+001 -2.000000e+002 4.500000e+001
4820500000 -2.000000e+002 4.500000e+001 -3.679391e+001 3.333631e+000 -2.000000e+002 4.500000e+001 -2.000000e+002 4.500000e+001
4820750000 -2.000000e+002 4.500000e+001 -3.707991e+001 -3.875142e+000 -2.000000e+002 4.500000e+001 -2.000000e+002 4.500000e+001
4821000000 -2.000000e+002 4.500000e+001 -3.702794e+001 -5.725110e+000 -2.000000e+002 4.500000e+001 -2.000000e+002 4.500000e+001
4821250000 -2.000000e+002 4.500000e+001 -3.684584e+001 -8.401009e+000 -2.000000e+002 4.500000e+001 -2.000000e+002 4.500000e+001
4821500000 -2.000000e+002 4.500000e+001 -3.674545e+001 -1.522046e+001 -2.000000e+002 4.500000e+001 -2.000000e+002 4.500000e+001
4821750000 -2.000000e+002 4.500000e+001 -3.669122e+001 -1.854306e+001 -2.000000e+002 4.500000e+001 -2.000000e+002 4.500000e+001
4822000000 -2.000000e+002 4.500000e+001 -3.627475e+001 -2.394882e+001 -2.000000e+002 4.500000e+001 -2.000000e+002 4.500000e+001
4822250000 -2.000000e+002 4.500000e+001 -3.616803e+001 -2.637605e+001 -2.000000e+002 4.500000e+001 -2.000000e+002 4.500000e+001
4822500000 -2.000000e+002 4.500000e+001 -3.643011e+001 -2.817872e+001 -2.000000e+002 4.500000e+001 -2.000000e+002 4.500000e+001
4822750000 -2.000000e+002 4.500000e+001 -3.579730e+001 -3.186343e+001 -2.000000e+002 4.500000e+001 -2.000000e+002 4.500000e+001
4823000000 -2.000000e+002 4.500000e+001 -3.584708e+001 -3.661615e+001 -2.000000e+002 4.500000e+001 -2.000000e+002 4.500000e+001
4823250000 -2.000000e+002 4.500000e+001 -3.551139e+001 -4.394603e+001 -2.000000e+002 4.500000e+001 -2.000000e+002 4.500000e+001
4823500000 -2.000000e+002 4.500000e+001 -3.557673e+001 -4.693385e+001 -2.000000e+002 4.500000e+001 -2.000000e+002 4.500000e+001
4823750000 -2.000000e+002 4.500000e+001 -3.522459e+001 -5.261218e+001 -2.000000e+002 4.500000e+001 -2.000000e+002 4.500000e+001
4824000000 -2.000000e+002 4.500000e+001 -3.522703e+001 -5.634795e+001 -2.000000e+002 4.500000e+001 -2.000000e+002 4.500000e+001
4824250000 -2.000000e+002 4.500000e+001 -3.516822e+001 -5.903699e+001 -2.000000e+002 4.500000e+001 -2.000000e+002 4.500000e+001
4824500000 -2.000000e+002 4.500000e+001 -3.505494e+001 -6.636031e+001 -2.000000e+002 4.500000e+001 -2.000000e+002 4.500000e+001
4824750000 -2.000000e+002 4.500000e+001 -3.482164e+001 -6.748934e+001 -2.000000e+002 4.500000e+001 -2.000000e+002 4.500000e+001
4825000000 -2.000000e+002 4.500000e+001 -3.483742e+001 -7.271138e+001 -2.000000e+002 4.500000e+001 -2.000000e+002 4.500000e+001
4825250000 -2.000000e+002 4.500000e+001 -3.464442e+001 -7.743574e+001 -2.000000e+002 4.500000e+001 -2.000000e+002 4.500000e+001
4825500000 -2.000000e+002 4.500000e+001 -3.438821e+001 -8.159545e+001 -2.000000e+002 4.500000e+001 -2.000000e+002 4.500000e+001
4825750000 -2.000000e+002 4.500000e+001 -3.428108e+001 -8.806310e+001 -2.000000e+002 4.500000e+001 -2.000000e+002 4.500000e+001
4826000000 -2.000000e+002 4.500000e+001 -3.390402e+001 -9.091779e+001 -2.000000e+002 4.500000e+001 -2.000000e+002 4.500000e+001
4826250000 -2.000000e+002 4.500000e+001 -3.375130e+001 -9.419257e+001 -2.000000e+002 4.500000e+001 -2.000000e+002 4.500000e+001
4826500000 -2.000000e+002 4.500000e+001 -3.340784e+001 -1.005092e+002 -2.000000e+002 4.500000e+001 -2.000000e+002 4.500000e+001
4826750000 -2.000000e+002 4.500000e+001 -3.354575e+001 -1.053538e+002 -2.000000e+002 4.500000e+001 -2.000000e+002 4.500000e+001
4827000000 -2.000000e+002 4.500000e+001 -3.350256e+001 -1.084890e+002 -2.000000e+002 4.500000e+001 -2.000000e+002 4.500000e+001
4827250000 -2.000000e+002 4.500000e+001 -3.301027e+001 -1.126326e+002 -2.000000e+002 4.500000e+001 -2.000000e+002 4.500000e+001
4827500000 -2.000000e+002 4.500000e+001 -3.292226e+001 -1.165868e+002 -2.000000e+002 4.500000e+001 -2.000000e+002 4.500000e+001
4827750000 -2.000000e+002 4.500000e+001 -3.271134e+001 -1.208213e+002 -2.000000e+002 4.500000e+001 -2.000000e+002 4.500000e+001
4828000000 -2.000000e+002 4.500000e+001 -3.254782e+001 -1.242386e+002 -2.000000e+002 4.500000e+001 -2.000000e+002 4.500000e+001
4828250000 -2.000000e+002 4.500000e+001 -3.245417e+001 -1.313703e+002 -2.000000e+002 4.500000e+001 -2.000000e+002 4.500000e+001
4828500000 -2.000000e+002 4.500000e+001 -3.239725e+001 -1.354527e+002 -2.000000e+002 4.500000e+001 -2.000000e+002 4.500000e+001
4828750000 -2.000000e+002 4.500000e+001 -3.214320e+001 -1.389510e+002 -2.000000e+002 4.500000e+001 -2.000000e+002 4.500000e+001
4829000000 -2.000000e+002 4.500000e+001 -3.217253e+001 -1.436403e+002 -2.000000e+002 4.500000e+001 -2.000000e+002 4.500000e+001
4829250000 -2.000000e+002 4.500000e+001 -3.187723e+001 -1.487358e+002 -2.000000e+002 4.500000e+001 -2.000000e+002 4.500000e+001
4829500000 -2.000000e+002 4.500000e+001 -3.182658e+001 -1.529355e+002 -2.000000e+002 4.500000e+001 -2.000000e+002 4.500000e+001
4829750000 -2.000000e+002 4.500000e+001 -3.157290e+001 -1.576225e+002 -2.000000e+002 4.500000e+001 -2.000000e+002 4.500000e+001
4830000000 -2.000000e+002 4.500000e+001 -3.131638e+001 -1.607854e+002 -2.000000e+002 4.500000e+001 -2.000000e+002 4.500000e+001
4830250000 -2.000000e+002 4.500000e+001 -3.120107e+001 -1.655202e+002 -2.000000e+002 4.500000e+001 -2.000000e+002 4.500000e+001
4830500000 -2.000000e+002 4.500000e+001 -3.109736e+001 -1.697263e+002 -2.000000e+002 4.500000e+001 -2.000000e+002 4.500000e+001
4830750000 -2.000000e+002 4.500000e+001 -3.089029e+001 -1.736397e+002 -2.000000e+002 4.500000e+001 -2.000000e+002 4.500000e+001
4831000000 -2.000000e+002 4.500000e+001 -3.067521e+001 -1.787865e+002 -2.000000e+002 4.500000e+001 -2.000000e+002 4.500000e+001
4831250000 -2.000000e+002 4.500000e+001 -3.046104e+001 1.767711e+002 -2.000000e+002 4.500000e+001 -2.000000e+002 4.500000e+001
4831500000 -2.000000e+002 4.500000e+001 -3.028923e+001 1.712575e+002 -2.000000e+002 4.500000e+001 -2.000000e+002 4.500000e+001
4831750000 -2.000000e+002 4.500000e+001 -3.014676e+001 1.671448e+002 -2.000000e+002 4.500000e+001 -2.000000e+002 4.500000e+001
4832000000 -2.000000e+002 4.500000e+001 -3.002979e+001 1.632535e+002 -2.000000e+002 4.500000e+001 -2.000000e+002 4.500000e+001
4832250000 -2.000000e+002 4.500000e+001 -2.965800e+001 1.586635e+002 -2.000000e+002 4.500000e+001 -2.000000e+002 4.500000e+001
4832500000 -2.000000e+002 4.500000e+001 -2.974875e+001 1.543497e+002 -2.000000e+002 4.500000e+001 -2.000000e+002 4.500000e+001
4832750000 -2.000000e+002 4.500000e+001 -2.935279e+001 1.503411e+002 -2.000000e+002 4.500000e+001 -2.000000e+002 4.500000e+001
4833000000 -2.000000e+002 4.500000e+001 -2.926257e+001 1.452782e+002 -2.000000e+002 4.500000e+001 -2.000000e+002 4.500000e+001
4833250000 -2.000000e+002 4.500000e+001 -2.888131e+001 1.402924e+002 -2.000000e+002 4.500000e+001 -2.000000e+002 4.500000e+001
4833500000 -2.000000e+002 4.500000e+001 -2.864244e+001 1.356276e+002 -2.000000e+002 4.500000e+001 -2.000000e+002 4.500000e+001
4833750000 -2.000000e+002 4.500000e+001 -2.854874e+001 1.326104e+002 -2.000000e+002 4.500000e+001 -2.000000e+002 4.500000e+001
4834000000 -2.000000e+002 4.500000e+001 -2.830062e+001 1.272281e+002 -2.000000e+002 4.500000e+001 -2.000000e+002 4.500000e+001
4834250000 -2.000000e+002 4.500000e+001 -2.805227e+001 1.221782e+002 -2.000000e+002 4.500000e+001 -2.000000e+002 4.500000e+001
4834500000 -2.000000e+002 4.500000e+001 -2.780762e+001 1.185330e+002 -2.000000e+002 4.500000e+001 -2.000000e+002 4.500000e+001
4834750000 -2.000000e+002 4.500000e+001 -2.761578e+001 1.127857e+002 -2.000000e+002 4.500000e+001 -2.000000e+002 4.500000e+001
4835000000 -2.000000e+002 4.500000e+001 -2.731032e+001 1.094126e+002 -2.000000e+002 4.500000e+001 -2.000000e+002 4.500000e+001
4835250000 -2.000000e+002 4.500000e+001 -2.704054e+001 1.039219e+002 -2.000000e+002 4.500000e+001 -2.000000e+002 4.500000e+001
4835500000 -2.000000e+002 4.500000e+001 -2.674562e+001 9.892706e+001 -2.000000e+002 4.500000e+001 -2.000000e+002 4.500000e+001
4835750000 -2.000000e+002 4.500000e+001 -2.635669e+001 9.441492e+001 -2.000000e+002 4.500000e+001 -2.000000e+002 4.500000e+001
4836000000 -2.000000e+002 4.500000e+001 -2.609929e+001 9.017915e+001 -2.000000e+002 4.500000e+001 -2.000000e+002 4.500000e+001
4836250000 -2.000000e+002 4.500000e+001 -2.591012e+001 8.412071e+001 -2.000000e+002 4.500000e+001 -2.000000e+002 4.500000e+001
4836500000 -2.000000e+002 4.500000e+001 -2.564996e+001 7.975417e+001 -2.000000e+002 4.500000e+001 -2.000000e+002 4.500000e+001
4836750000 -2.000000e+002 4.500000e+001 -2.540940e+001 7.532171e+001 -2.000000e+002 4.500000e+001 -2.000000e+002 4.500000e+001
4837000000 -2.000000e+002 4.500000e+001 -2.509212e+001 7.094079e+001 -2.000000e+002 4.500000e+001 -2.000000e+002 4.500000e+001
4837250000 -2.000000e+002 4.500000e+001 -2.471527e+001 6.590543e+001 -2.000000e+002 4.500000e+001 -2.000000e+002 4.500000e+001
4837500000 -2.000000e+002 4.500000e+001 -2.435780e+001 5.976942e+001 -2.000000e+002 4.500000e+001 -2.000000e+002 4.500000e+001
4837750000 -2.000000e+002 4.500000e+001 -2.411600e+001 5.486220e+001 -2.000000e+002 4.500000e+001 -2.000000e+002 4.500000e+001
4838000000 -2.000000e+002 4.500000e+001 -2.369010e+001 4.957213e+001 -2.000000e+002 4.500000e+001 -2.000000e+002 4.500000e+001
4838250000 -2.000000e+002 4.500000e+001 -2.334966e+001 4.468855e+001 -2.000000e+002 4.500000e+001 -2.000000e+002 4.500000e+001
4838500000 -2.000000e+002 4.500000e+001 -2.303665e+001 3.913815e+001 -2.000000e+002 4.500000e+001 -2.000000e+002 4.500000e+001
4838750000 -2.000000e+002 4.500000e+001 -2.267598e+001 3.368159e+001 -2.000000e+002 4.500000e+001 -2.000000e+002 4.500000e+001
4839000000 -2.000000e+002 4.500000e+001 -2.227482e+001 2.830352e+001 -2.000000e+002 4.500000e+001 -2.000000e+002 4.500000e+001
4839250000 -2.000000e+002 4.500000e+001 -2.186026e+001 2.246634e+001 -2.000000e+002 4.500000e+001 -2.000000e+002 4.500000e+001
4839500000 -2.000000e+002 4.500000e+001 -2.145613e+001 1.666346e+001 -2.000000e+002 4.500000e+001 -2.000000e+002 4.500000e+001
4839750000 -2.000000e+002 4.500000e+001 -2.094136e+001 1.089376e+001 -2.000000e+002 4.500000e+001 -2.000000e+002 4.500000e+001
4840000000 -2.000000e+002 4.500000e+001 -2.059290e+001 4.588982e+000 -2.000000e+002 4.500000e+001 -2.000000e+002 4.500000e+001
4840250000 -2.000000e+002 4.500000e+001 -2.012235e+001 -1.604891e+000 -2.000000e+002 4.500000e+001 -2.000000e+002 4.500000e+001
4840500000 -2.000000e+002 4.500000e+001 -1.963825e+001 -8.473429e+000 -2.000000e+002 4.500000e+001 -2.000000e+002 4.500000e+001
4840750000 -2.000000e+002 4.500000e+001 -1.921493e+001 -1.500165e+001 -2.000000e+002 4.500000e+001 -2.000000e+002 4.500000e+001
4841000000 -2.000000e+002 4.500000e+001 -1.873470e+001 -2.230835e+001 -2.000000e+002 4.500000e+001 -2.000000e+002 4.500000e+001
4841250000 -2.000000e+002 4.500000e+001 -1.827650e+001 -2.968433e+001 -2.000000e+002 4.500000e+001 -2.000000e+002 4.500000e+001
4841500000 -2.000000e+002 4.500000e+001 -1.782407e+001 -3.718281e+001 -2.000000e+002 4.500000e+001 -2.000000e+002 4.500000e+001
4841750000 -2.000000e+002 4.500000e+001 -1.737789e+001 -4.581054e+001 -2.000000e+002 4.500000e+001 -2.000000e+002 4.500000e+001
4842000000 -2.000000e+002 4.500000e+001 -1.690897e+001 -5.420843e+001 -2.000000e+002 4.500000e+001 -2.000000e+002 4.500000e+001
4842250000 -2.000000e+002 4.500000e+001 -1.655239e+001 -6.310998e+001 -2.000000e+002 4.500000e+001 -2.000000e+002 4.500000e+001
4842500000 -2.000000e+002 4.500000e+001 -1.622529e+001 -7.268446e+001 -2.000000e+002 4.500000e+001 -2.000000e+002 4.500000e+001
4842750000 -2.000000e+002 4.500000e+001 -1.597890e+001 -8.223212e+001 -2.000000e+002 4.500000e+001 -2.000000e+002 4.500000e+001
4843000000 -2.000000e+002 4.500000e+001 -1.574760e+001 -9.224995e+001 -2.000000e+002 4.500000e+001 -2.000000e+002 4.500000e+001
4843250000 -2.000000e+002 4.500000e+001 -1.567698e+001 -1.025018e+002 -2.000000e+002 4.500000e+001 -2.000000e+002 4.500000e+001
4843500000 -2.000000e+002 4.500000e+001 -1.568008e+001 -1.130037e+002 -2.000000e+002 4.500000e+001 -2.000000e+002 4.500000e+001
4843750000 -2.000000e+002 4.500000e+001 -1.579731e+001 -1.233183e+002 -2.000000e+002 4.500000e+001 -2.000000e+002 4.500000e+001
4844000000 -2.000000e+002 4.500000e+001 -1.597940e+001 -1.328935e+002 -2.000000e+002 4.500000e+001 -2.000000e+002 4.500000e+001
4844250000 -2.000000e+002 4.500000e+001 -1.625728e+001 -1.426516e+002 -2.000000e+002 4.500000e+001 -2.000000e+002 4.500000e+001
4844500000 -2.000000e+002 4.500000e+001 -1.657099e+001 -1.523129e+002 -2.000000e+002 4.500000e+001 -2.000000e+002 4.500000e+001
4844750000 -2.000000e+002 4.500000e+001 -1.695282e+001 -1.612561e+002 -2.000000e+002 4.500000e+001 -2.000000e+002 4.500000e+001
4845000000 -2.000000e+002 4.500000e+001 -1.740112e+001 -1.698167e+002 -2.000000e+002 4.500000e+001 -2.000000e+002 4.500000e+001
4845250000 -2.000000e+002 4.500000e+001 -1.784492e+001 -1.778306e+002 -2.000000e+002 4.500000e+001 -2.000000e+002 4.500000e+001
4845500000 -2.000000e+002 4.500000e+001 -1.829149e+001 1.742842e+002 -2.000000e+002 4.500000e+001 -2.000000e+002 4.500000e+001
4845750000 -2.000000e+002 4.500000e+001 -1.875739e+001 1.669785e+002 -2.000000e+002 4.500000e+001 -2.000000e+002 4.500000e+001
4846000000 -2.000000e+002 4.500000e+001 -1.920631e+001 1.600035e+002 -2.000000e+002 4.500000e+001 -2.000000e+002 4.500000e+001
4846250000 -2.000000e+002 4.500000e+001 -1.968382e+001 1.530825e+002 -2.000000e+002 4.500000e+001 -2.000000e+002 4.500000e+001
4846500000 -2.000000e+002 4.500000e+001 -2.017587e+001 1.470309e+002 -2.000000e+002 4.500000e+001 -2.000000e+002 4.500000e+001
4846750000 -2.000000e+002 4.500000e+001 -2.056018e+001 1.401265e+002 -2.000000e+002 4.500000e+001 -2.000000e+002 4.500000e+001
4847000000 -2.000000e+002 4.500000e+001 -2.103018e+001 1.341379e+002 -2.000000e+002 4.500000e+001 -2.000000e+002 4.500000e+001
4847250000 -2.000000e+002 4.500000e+001 -2.147118e+001 1.288288e+002 -2.000000e+002 4.500000e+001 -2.000000e+002 4.500000e+001
4847500000 -2.000000e+002 4.500000e+001 -2.184352e+001 1.228872e+002 -2.000000e+002 4.500000e+001 -2.000000e+002 4.500000e+001
4847750000 -2.000000e+002 4.500000e+001 -2.224480e+001 1.176140e+002 -2.000000e+002 4.500000e+001 -2.000000e+002 4.500000e+001
4848000000 -2.000000e+002 4.500000e+001 -2.262472e+001 1.113143e+002 -2.000000e+002 4.500000e+001 -2.000000e+002 4.500000e+001
4848250000 -2.000000e+002 4.500000e+001 -2.299338e+001 1.063453e+002 -2.000000e+002 4.500000e+001 -2.000000e+002 4.500000e+001
4848500000 -2.000000e+002 4.500000e+001 -2.333415e+001 1.015228e+002 -2.000000e+002 4.500000e+001 -2.000000e+002 4.500000e+001
4848750000 -2.000000e+002 4.500000e+001 -2.370472e+001 9.611740e+001 -2.000000e+002 4.500000e+001 -2.000000e+002 4.500000e+001
4849000000 -2.000000e+002 4.500000e+001 -2.404606e+001 9.089277e+001 -2.000000e+002 4.500000e+001 -2.000000e+002 4.500000e+001
4849250000 -2.000000e+002 4.500000e+001 -2.435508e+001 8.592918e+001 -2.000000e+002 4.500000e+001 -2.000000e+002 4.500000e+001
4849500000 -2.000000e+002 4.500000e+001 -2.469371e+001 8.058308e+001 -2.000000e+002 4.500000e+001 -2.000000e+002 4.500000e+001
4849750000 -2.000000e+002 4.500000e+001 -2.494569e+001 7.619427e+001 -2.000000e+002 4.500000e+001 -2.000000e+002 4.500000e+001
4850000000 -2.000000e+002 4.500000e+001 -2.527021e+001 7.142778e+001 -2.000000e+002 4.500000e+001 -2.000000e+002 4.500000e+001
4850250000 -2.000000e+002 4.500000e+001 -2.560939e+001 6.625639e+001 -2.000000e+002 4.500000e+001 -2.000000e+002 4.500000e+001
4850500000 -2.000000e+002 4.500000e+001 -2.588768e+001 6.224972e+001 -2.000000e+002 4.500000e+001 -2.000000e+002 4.500000e+001
4850750000 -2.000000e+002 4.500000e+001 -2.614064e+001 5.691316e+001 -2.000000e+002 4.500000e+001 -2.000000e+002 4.500000e+001
4851000000 -2.000000e+002 4.500000e+001 -2.643370e+001 5.274329e+001 -2.000000e+002 4.500000e+001 -2.000000e+002 4.500000e+001
4851250000 -2.000000e+002 4.500000e+001 -2.672528e+001 4.840509e+001 -2.000000e+002 4.500000e+001 -2.000000e+002 4.500000e+001
4851500000 -2.000000e+002 4.500000e+001 -2.679469e+001 4.416900e+001 -2.000000e+002 4.500000e+001 -2.000000e+002 4.500000e+001
4851750000 -2.000000e+002 4.500000e+001 -2.709823e+001 3.864021e+001 -2.000000e+002 4.500000e+001 -2.000000e+002 4.500000e+001
4852000000 -2.000000e+002 4.500000e+001 -2.719172e+001 3.417639e+001 -2.000000e+002 4.500000e+001 -2.000000e+002 4.500000e+001
4852250000 -2.000000e+002 4.500000e+001 -2.744021e+001 3.021947e+001 -2.000000e+002 4.500000e+001 -2.000000e+002 4.500000e+001
4852500000 -2.000000e+002 4.500000e+001 -2.752777e+001 2.558167e+001 -2.000000e+002 4.500000e+001 -2.000000e+002 4.500000e+001
4852750000 -2.000000e+002 4.500000e+001 -2.795143e+001 2.080460e+001 -2.000000e+002 4.500000e+001 -2.000000e+002 4.500000e+001
4853000000 -2.000000e+002 4.500000e+001 -2.812506e+001 1.541258e+001 -2.000000e+002 4.500000e+001 -2.000000e+002 4.500000e+001
4853250000 -2.000000e+002 4.500000e+001 -2.832782e+001 1.223653e+001 -2.000000e+002 4.500000e+001 -2.000000e+002 4.500000e+001
4853500000 -2.000000e+002 4.500000e+001 -2.849952e+001 6.159867e+000 -2.000000e+002 4.500000e+001 -2.000000e+002 4.500000e+001
4853750000 -2.000000e+002 4.500000e+001 -2.870547e+001 2.650070e+000 -2.000000e+002 4.500000e+001 -2.000000e+002 4.500000e+001
4854000000 -2.000000e+002 4.500000e+001 -2.889531e+001 -2.934785e+000 -2.000000e+002 4.500000e+001 -2.000000e+002 4.500000e+001
4854250000 -2.000000e+002 4.500000e+001 -2.927351e+001 -7.528804e+000 -2.000000e+002 4.500000e+001 -2.000000e+002 4.500000e+001
4854500000 -2.000000e+002 4.500000e+001 -2.938474e+001 -1.191409e+001 -2.000000e+002 4.500000e+001 -2.000000e+002 4.500000e+001
4854750000 -2.000000e+002 4.500000e+001 -2.946679e+001 -1.539357e+001 -2.000000e+002 4.500000e+001 -2.000000e+002 4.500000e+001
4855000000 -2.000000e+002 4.500000e+001 -2.961280e+001 -2.031926e+001 -2.000000e+002 4.500000e+001 -2.000000e+002 4.500000e+001
4855250000 -2.000000e+002 4.500000e+001 -2.982401e+001 -2.332839e+001 -2.000000e+002 4.500000e+001 -2.000000e+002 4.500000e+001
4855500000 -2.000000e+002 4.500000e+001 -3.006874e+001 -2.912927e+001 -2.000000e+002 4.500000e+001 -2.000000e+002 4.500000e+001
4855750000 -2.000000e+002 4.500000e+001 -3.035993e+001 -3.394387e+001 -2.000000e+002 4.500000e+001 -2.000000e+002 4.500000e+001
4856000000 -2.000000e+002 4.500000e+001 -3.060088e+001 -3.836670e+001 -2.000000e+002 4.500000e+001 -2.000000e+002 4.500000e+001
4856250000 -2.000000e+002 4.500000e+001 -3.067694e+001 -4.312930e+001 -2.000000e+002 4.500000e+001 -2.000000e+002 4.500000e+001
4856500000 -2.000000e+002 4.500000e+001 -3.068465e+001 -4.650927e+001 -2.000000e+002 4.500000e+001 -2.000000e+002 4.500000e+001
4856750000 -2.000000e+002 4.500000e+001 -3.076094e+001 -5.105022e+001 -2.000000e+002 4.500000e+001 -2.000000e+002 4.500000e+001
4857000000 -2.000000e+002 4.500000e+001 -3.116063e+001 -5.539057e+001 -2.000000e+002 4.500000e+001 -2.000000e+002 4.500000e+001
4857250000 -2.000000e+002 4.500000e+001 -3.120887e+001 -5.872214e+001 -2.000000e+002 4.500000e+001 -2.000000e+002 4.500000e+001
