!Agilent Technologies,N5230A,MY45001652,A.07.50.57
!Agilent N5230A: A.07.50.57
!Date: Sunday, September 20, 2015 12:35:53
!Correction: S11(Full 2 Port(1,2)) 
!S21(Full 2 Port(1,2)) 
!S12(Full 2 Port(1,2)) 
!S22(Full 2 Port(1,2)) 
!S2P File: Measurements: S11, S21, S12, S22:
# Hz S  dB   R 50
4975000000 -1.951246e+001 7.180293e+000 -3.058683e+001 -1.270556e+002 -8.239991e+001 5.729683e+001 -1.720634e+001 -2.760847e+000
4975250000 -1.957971e+001 7.032029e+000 -3.056221e+001 -1.302513e+002 -9.220815e+001 -1.328799e+002 -1.723273e+001 -4.561238e+000
4975500000 -1.963392e+001 6.902327e+000 -3.050566e+001 -1.343871e+002 -8.076678e+001 1.203733e+002 -1.725196e+001 -6.580503e+000
4975750000 -1.968848e+001 6.719861e+000 -3.032318e+001 -1.386088e+002 -8.092624e+001 -1.706458e+002 -1.727763e+001 -8.407082e+000
4976000000 -1.973937e+001 6.535184e+000 -3.022524e+001 -1.423732e+002 -9.241215e+001 1.823189e+001 -1.729512e+001 -1.044859e+001
4976250000 -1.980811e+001 6.414473e+000 -3.023936e+001 -1.469401e+002 -8.063318e+001 -1.670296e+002 -1.731679e+001 -1.251633e+001
4976500000 -1.986780e+001 6.267484e+000 -3.005382e+001 -1.517805e+002 -8.454140e+001 -6.814920e+001 -1.732911e+001 -1.440467e+001
4976750000 -1.992644e+001 6.177713e+000 -3.003847e+001 -1.555397e+002 -7.848196e+001 -1.180390e+001 -1.735314e+001 -1.636484e+001
4977000000 -1.997981e+001 6.048027e+000 -2.982727e+001 -1.602001e+002 -7.784916e+001 -1.001420e+002 -1.737061e+001 -1.838194e+001
4977250000 -2.005107e+001 5.929894e+000 -2.983472e+001 -1.645699e+002 -8.600057e+001 -1.065369e+002 -1.740072e+001 -2.033760e+001
4977500000 -2.009890e+001 5.872636e+000 -2.977118e+001 -1.687037e+002 -8.284274e+001 4.763465e+001 -1.740181e+001 -2.233972e+001
4977750000 -2.017046e+001 5.772727e+000 -2.962943e+001 -1.732137e+002 -8.194810e+001 -1.492486e+002 -1.743712e+001 -2.413418e+001
4978000000 -2.023644e+001 5.714545e+000 -2.958054e+001 -1.774113e+002 -9.202469e+001 -1.633173e+002 -1.745965e+001 -2.613482e+001
4978250000 -2.029800e+001 5.704706e+000 -2.943724e+001 1.784853e+002 -8.870193e+001 6.400388e+001 -1.745358e+001 -2.808327e+001
4978500000 -2.034840e+001 5.664325e+000 -2.939816e+001 1.738028e+002 -8.780271e+001 1.714863e+002 -1.747098e+001 -3.011909e+001
4978750000 -2.041287e+001 5.605420e+000 -2.933136e+001 1.695679e+002 -8.406576e+001 8.634039e+001 -1.747889e+001 -3.213854e+001
4979000000 -2.047816e+001 5.643273e+000 -2.923902e+001 1.654756e+002 -8.248917e+001 -3.758130e+001 -1.750201e+001 -3.412947e+001
4979250000 -2.053849e+001 5.655242e+000 -2.917045e+001 1.612580e+002 -8.566235e+001 1.680943e+002 -1.752168e+001 -3.620664e+001
4979500000 -2.060143e+001 5.656130e+000 -2.906545e+001 1.574526e+002 -8.011523e+001 -3.466949e+001 -1.751925e+001 -3.822097e+001
4979750000 -2.065971e+001 5.664647e+000 -2.902906e+001 1.534016e+002 -8.296717e+001 8.321753e+001 -1.756216e+001 -4.021817e+001
4980000000 -2.072313e+001 5.733107e+000 -2.891511e+001 1.493021e+002 -9.629808e+001 -4.928926e+001 -1.757094e+001 -4.218930e+001
4980250000 -2.077365e+001 5.795405e+000 -2.870276e+001 1.451685e+002 -7.627456e+001 6.218551e+001 -1.757600e+001 -4.421614e+001
4980500000 -2.084344e+001 5.789268e+000 -2.873458e+001 1.413420e+002 -8.555836e+001 -1.467902e+002 -1.760480e+001 -4.617810e+001
4980750000 -2.090043e+001 5.942667e+000 -2.860857e+001 1.369193e+002 -8.571340e+001 -4.338023e+001 -1.760175e+001 -4.824962e+001
4981000000 -2.095841e+001 6.016768e+000 -2.852039e+001 1.323512e+002 -8.738186e+001 1.519112e+002 -1.761852e+001 -5.026019e+001
4981250000 -2.100356e+001 6.176862e+000 -2.835105e+001 1.282947e+002 -7.886060e+001 1.083217e+001 -1.761444e+001 -5.228237e+001
4981500000 -2.107780e+001 6.221926e+000 -2.828184e+001 1.238610e+002 -8.162458e+001 -4.502610e+001 -1.764491e+001 -5.433727e+001
4981750000 -2.113292e+001 6.437147e+000 -2.818508e+001 1.195692e+002 -8.154505e+001 -1.440870e+002 -1.764190e+001 -5.639507e+001
4982000000 -2.118601e+001 6.585244e+000 -2.798803e+001 1.160609e+002 -8.156300e+001 3.464179e+001 -1.765517e+001 -5.829619e+001
4982250000 -2.124014e+001 6.738927e+000 -2.791332e+001 1.116289e+002 -8.436067e+001 -1.428550e+002 -1.765259e+001 -6.034125e+001
4982500000 -2.128798e+001 6.939906e+000 -2.782820e+001 1.071716e+002 -8.879696e+001 -1.382383e+002 -1.767489e+001 -6.244662e+001
4982750000 -2.134140e+001 7.110367e+000 -2.772293e+001 1.026852e+002 -8.810938e+001 -1.146181e+002 -1.768552e+001 -6.447560e+001
4983000000 -2.139739e+001 7.247756e+000 -2.758136e+001 9.864371e+001 -9.182066e+001 8.057534e+001 -1.766249e+001 -6.658186e+001
4983250000 -2.144209e+001 7.533831e+000 -2.744111e+001 9.491277e+001 -7.917814e+001 3.473795e+001 -1.768200e+001 -6.861977e+001
4983500000 -2.149754e+001 7.775535e+000 -2.737815e+001 9.051642e+001 -9.362657e+001 1.772121e+002 -1.770087e+001 -7.056506e+001
4983750000 -2.152646e+001 8.013735e+000 -2.722937e+001 8.594189e+001 -8.137810e+001 1.326009e+002 -1.768910e+001 -7.278242e+001
4984000000 -2.157762e+001 8.230638e+000 -2.705383e+001 8.195119e+001 -8.624075e+001 1.174704e+001 -1.768972e+001 -7.475543e+001
4984250000 -2.162098e+001 8.484491e+000 -2.698700e+001 7.773312e+001 -7.996034e+001 1.226709e+002 -1.770520e+001 -7.672328e+001
4984500000 -2.165931e+001 8.797287e+000 -2.688891e+001 7.367714e+001 -8.392300e+001 -9.460178e+001 -1.769837e+001 -7.877143e+001
4984750000 -2.169180e+001 9.083201e+000 -2.679317e+001 6.901051e+001 -8.520370e+001 -2.668654e+001 -1.768428e+001 -8.077839e+001
4985000000 -2.174114e+001 9.398860e+000 -2.662679e+001 6.505655e+001 -8.274758e+001 -6.901068e+001 -1.770246e+001 -8.290969e+001
4985250000 -2.175753e+001 9.688003e+000 -2.652660e+001 6.068784e+001 -7.771258e+001 1.375423e+002 -1.769130e+001 -8.498354e+001
4985500000 -2.179357e+001 1.002030e+001 -2.634335e+001 5.691367e+001 -8.361317e+001 -7.929692e+001 -1.767034e+001 -8.694894e+001
4985750000 -2.182283e+001 1.028437e+001 -2.619629e+001 5.220590e+001 -8.300317e+001 -7.898004e+001 -1.769505e+001 -8.908180e+001
4986000000 -2.185196e+001 1.063293e+001 -2.608613e+001 4.811209e+001 -8.878661e+001 2.089823e+001 -1.767937e+001 -9.117612e+001
4986250000 -2.187919e+001 1.096982e+001 -2.596954e+001 4.388621e+001 -7.749083e+001 5.736041e+001 -1.767995e+001 -9.294762e+001
4986500000 -2.189305e+001 1.127205e+001 -2.583016e+001 3.948541e+001 -8.665414e+001 8.899766e+001 -1.769044e+001 -9.522179e+001
4986750000 -2.191294e+001 1.166187e+001 -2.566519e+001 3.530746e+001 -9.992693e+001 8.886726e+001 -1.766355e+001 -9.706946e+001
4987000000 -2.193933e+001 1.199607e+001 -2.556905e+001 3.143774e+001 -8.632077e+001 8.821721e+001 -1.766980e+001 -9.916902e+001
4987250000 -2.196612e+001 1.229353e+001 -2.541675e+001 2.675029e+001 -8.830824e+001 1.330993e+002 -1.763119e+001 -1.011921e+002
4987500000 -2.197033e+001 1.266828e+001 -2.526502e+001 2.290620e+001 -8.626073e+001 1.392554e+002 -1.764996e+001 -1.033599e+002
4987750000 -2.199156e+001 1.306234e+001 -2.511345e+001 1.851173e+001 -8.812986e+001 -2.855970e+001 -1.761874e+001 -1.053679e+002
4988000000 -2.198957e+001 1.339264e+001 -2.491440e+001 1.444043e+001 -8.617444e+001 -1.210952e+002 -1.761309e+001 -1.073985e+002
4988250000 -2.200072e+001 1.375251e+001 -2.478252e+001 1.002590e+001 -7.857315e+001 1.490703e+002 -1.760776e+001 -1.095024e+002
4988500000 -2.199653e+001 1.410388e+001 -2.459913e+001 5.939169e+000 -8.771797e+001 4.357183e+001 -1.760393e+001 -1.112623e+002
4988750000 -2.199493e+001 1.446898e+001 -2.445977e+001 1.468508e+000 -8.366241e+001 9.940135e+001 -1.758739e+001 -1.135116e+002
4989000000 -2.199518e+001 1.478575e+001 -2.423820e+001 -2.640792e+000 -7.874436e+001 1.765671e+002 -1.758197e+001 -1.155946e+002
4989250000 -2.198745e+001 1.515109e+001 -2.408777e+001 -6.982410e+000 -8.507264e+001 -7.269289e+001 -1.757597e+001 -1.175610e+002
4989500000 -2.199032e+001 1.543320e+001 -2.387912e+001 -1.122543e+001 -8.202330e+001 9.745320e+001 -1.754370e+001 -1.195580e+002
4989750000 -2.197392e+001 1.587723e+001 -2.369432e+001 -1.530323e+001 -8.693957e+001 4.537766e+001 -1.752384e+001 -1.215635e+002
4990000000 -2.195988e+001 1.623575e+001 -2.347181e+001 -2.003398e+001 -8.449196e+001 -1.316976e+001 -1.753731e+001 -1.236490e+002
4990250000 -2.193674e+001 1.657147e+001 -2.332825e+001 -2.393938e+001 -8.203496e+001 5.432623e+001 -1.748809e+001 -1.257693e+002
4990500000 -2.193342e+001 1.687592e+001 -2.311345e+001 -2.857453e+001 -8.274379e+001 -1.443091e+002 -1.749542e+001 -1.276427e+002
4990750000 -2.190745e+001 1.718473e+001 -2.290892e+001 -3.256582e+001 -8.250867e+001 5.364607e+001 -1.749579e+001 -1.297847e+002
4991000000 -2.188622e+001 1.756981e+001 -2.269450e+001 -3.683796e+001 -8.228708e+001 -1.548752e+002 -1.747721e+001 -1.318499e+002
4991250000 -2.187745e+001 1.782406e+001 -2.251177e+001 -4.115133e+001 -8.634923e+001 -8.607985e+001 -1.744268e+001 -1.337176e+002
4991500000 -2.184022e+001 1.818070e+001 -2.228937e+001 -4.547605e+001 -8.228031e+001 -2.567847e+001 -1.743276e+001 -1.356856e+002
4991750000 -2.181914e+001 1.844123e+001 -2.205750e+001 -4.989509e+001 -8.597272e+001 -2.917352e+001 -1.742358e+001 -1.377272e+002
4992000000 -2.178390e+001 1.881805e+001 -2.183423e+001 -5.426353e+001 -8.114308e+001 7.378304e+001 -1.738138e+001 -1.398719e+002
4992250000 -2.176303e+001 1.900684e+001 -2.156719e+001 -5.862716e+001 -8.722440e+001 1.498450e+002 -1.739004e+001 -1.416370e+002
4992500000 -2.173509e+001 1.934571e+001 -2.134308e+001 -6.300735e+001 -8.246832e+001 1.229328e+002 -1.737327e+001 -1.437167e+002
4992750000 -2.169865e+001 1.954635e+001 -2.110463e+001 -6.740337e+001 -8.798244e+001 7.843793e+001 -1.733201e+001 -1.456725e+002
4993000000 -2.166491e+001 1.980848e+001 -2.081489e+001 -7.162457e+001 -8.023080e+001 1.373780e+002 -1.733236e+001 -1.475984e+002
4993250000 -2.161446e+001 1.997419e+001 -2.053114e+001 -7.596470e+001 -8.769463e+001 1.650656e+002 -1.731845e+001 -1.496574e+002
4993500000 -2.158925e+001 2.023921e+001 -2.026950e+001 -8.038187e+001 -8.584290e+001 5.783350e+001 -1.728391e+001 -1.515526e+002
4993750000 -2.155506e+001 2.045050e+001 -1.997383e+001 -8.507471e+001 -7.755136e+001 -8.955070e+001 -1.726016e+001 -1.535972e+002
4994000000 -2.150620e+001 2.071461e+001 -1.967520e+001 -8.950369e+001 -8.712466e+001 -6.528796e+001 -1.723504e+001 -1.554555e+002
4994250000 -2.146077e+001 2.085514e+001 -1.939033e+001 -9.398499e+001 -9.440196e+001 1.055394e+002 -1.723522e+001 -1.575733e+002
4994500000 -2.141251e+001 2.103869e+001 -1.903021e+001 -9.867142e+001 -8.110413e+001 -9.728751e+001 -1.720435e+001 -1.594301e+002
4994750000 -2.138001e+001 2.119102e+001 -1.872294e+001 -1.031834e+002 -7.783311e+001 -1.385712e+002 -1.719232e+001 -1.613417e+002
4995000000 -2.132840e+001 2.142299e+001 -1.837550e+001 -1.079388e+002 -8.526628e+001 -1.746937e+002 -1.718000e+001 -1.633123e+002
4995250000 -2.127971e+001 2.154875e+001 -1.804711e+001 -1.125464e+002 -7.663423e+001 1.155424e+002 -1.714847e+001 -1.653504e+002
4995500000 -2.123455e+001 2.174127e+001 -1.766545e+001 -1.172424e+002 -7.969372e+001 8.073772e+000 -1.713297e+001 -1.671628e+002
4995750000 -2.118931e+001 2.180633e+001 -1.726007e+001 -1.220518e+002 -7.867403e+001 1.098258e+002 -1.711170e+001 -1.691410e+002
4996000000 -2.114025e+001 2.192198e+001 -1.688936e+001 -1.269089e+002 -8.293633e+001 -1.023215e+002 -1.710266e+001 -1.709773e+002
4996250000 -2.108773e+001 2.202730e+001 -1.645969e+001 -1.317750e+002 -8.007981e+001 1.722277e+002 -1.706560e+001 -1.729810e+002
4996500000 -2.104485e+001 2.209647e+001 -1.602444e+001 -1.366953e+002 -9.728896e+001 -1.054037e+002 -1.705471e+001 -1.748860e+002
4996750000 -2.099212e+001 2.219832e+001 -1.558850e+001 -1.417040e+002 -8.835357e+001 -4.168714e+001 -1.702676e+001 -1.768646e+002
4997000000 -2.094685e+001 2.235384e+001 -1.511110e+001 -1.468338e+002 -8.834507e+001 -1.265832e+002 -1.700555e+001 -1.787476e+002
4997250000 -2.089160e+001 2.237263e+001 -1.460236e+001 -1.520486e+002 -9.090997e+001 8.424908e+001 -1.699004e+001 1.793489e+002
4997500000 -2.084500e+001 2.241142e+001 -1.409036e+001 -1.573385e+002 -8.446675e+001 1.555733e+001 -1.699713e+001 1.774039e+002
4997750000 -2.078999e+001 2.247084e+001 -1.352387e+001 -1.627309e+002 -7.984534e+001 9.107726e+001 -1.696808e+001 1.755559e+002
4998000000 -2.073994e+001 2.251092e+001 -1.291775e+001 -1.684228e+002 -8.982461e+001 -6.939227e+001 -1.694331e+001 1.735905e+002
4998250000 -2.069261e+001 2.249095e+001 -1.229054e+001 -1.742861e+002 -8.556366e+001 1.752001e+002 -1.693296e+001 1.718396e+002
4998500000 -2.063734e+001 2.247342e+001 -1.160312e+001 1.794820e+002 -8.309949e+001 1.577204e+002 -1.691357e+001 1.698313e+002
4998750000 -2.058433e+001 2.242682e+001 -1.087781e+001 1.730133e+002 -8.405085e+001 4.009545e+000 -1.689796e+001 1.680301e+002
4999000000 -2.052757e+001 2.244499e+001 -1.010330e+001 1.659116e+002 -8.519740e+001 -1.536058e+002 -1.686626e+001 1.661898e+002
4999250000 -2.049874e+001 2.239038e+001 -9.278640e+000 1.583655e+002 -9.647773e+001 -1.492719e+002 -1.686616e+001 1.642858e+002
4999500000 -2.043433e+001 2.237274e+001 -8.409256e+000 1.500043e+002 -1.023669e+002 -1.464752e+002 -1.684444e+001 1.624620e+002
4999750000 -2.039194e+001 2.230235e+001 -7.505375e+000 1.406841e+002 -8.425238e+001 -2.458059e+001 -1.682655e+001 1.605564e+002
5000000000 -2.033484e+001 2.222251e+001 -6.603190e+000 1.302057e+002 -8.955656e+001 -8.478015e+001 -1.682144e+001 1.586929e+002
5000250000 -2.025155e+001 2.223609e+001 -5.699045e+000 1.182933e+002 -8.157320e+001 1.463775e+002 -1.680806e+001 1.570474e+002
5000500000 -2.020348e+001 2.227285e+001 -4.950844e+000 1.047052e+002 -9.513531e+001 -1.371781e+002 -1.679402e+001 1.552829e+002
5000750000 -2.016551e+001 2.222293e+001 -4.426311e+000 8.961127e+001 -8.565118e+001 3.110396e+001 -1.676341e+001 1.534235e+002
5001000000 -2.010731e+001 2.221125e+001 -4.235850e+000 7.356780e+001 -7.800184e+001 5.245254e+000 -1.674584e+001 1.515969e+002
5001250000 -2.007553e+001 2.219969e+001 -4.425080e+000 5.750331e+001 -8.800671e+001 -8.324356e+001 -1.671759e+001 1.497241e+002
5001500000 -2.002632e+001 2.216619e+001 -4.947468e+000 4.231052e+001 -8.557397e+001 1.462386e+002 -1.669151e+001 1.478316e+002
5001750000 -1.998225e+001 2.213677e+001 -5.706639e+000 2.867321e+001 -8.065146e+001 1.214086e+002 -1.668955e+001 1.460012e+002
5002000000 -1.993361e+001 2.202934e+001 -6.588947e+000 1.665874e+001 -7.883952e+001 1.426180e+001 -1.668338e+001 1.442636e+002
5002250000 -1.988594e+001 2.197952e+001 -7.515346e+000 6.154028e+000 -8.304242e+001 6.329114e+001 -1.666796e+001 1.422970e+002
5002500000 -1.984183e+001 2.191628e+001 -8.425827e+000 -3.075559e+000 -8.547601e+001 -4.846197e+000 -1.665191e+001 1.405718e+002
5002750000 -1.980437e+001 2.185722e+001 -9.318037e+000 -1.136662e+001 -7.986256e+001 2.315795e+001 -1.664924e+001 1.388601e+002
5003000000 -1.976208e+001 2.174148e+001 -1.014163e+001 -1.898490e+001 -8.446770e+001 -5.151569e+001 -1.663008e+001 1.368964e+002
5003250000 -1.972159e+001 2.166157e+001 -1.091964e+001 -2.586890e+001 -7.865823e+001 -1.222804e-001 -1.662140e+001 1.352111e+002
5003500000 -1.968614e+001 2.154731e+001 -1.163838e+001 -3.244686e+001 -9.167928e+001 1.446113e+002 -1.662173e+001 1.333969e+002
5003750000 -1.964015e+001 2.147778e+001 -1.233316e+001 -3.859224e+001 -8.877201e+001 -9.483119e+001 -1.660433e+001 1.315922e+002
5004000000 -1.959539e+001 2.131881e+001 -1.296741e+001 -4.442662e+001 -9.559552e+001 -2.010698e+001 -1.660093e+001 1.298398e+002
5004250000 -1.956039e+001 2.116619e+001 -1.356965e+001 -5.006453e+001 -8.906653e+001 -6.915602e+001 -1.659983e+001 1.279001e+002
5004500000 -1.952769e+001 2.106443e+001 -1.411786e+001 -5.561123e+001 -9.335717e+001 -1.454260e+002 -1.656814e+001 1.262463e+002
5004750000 -1.948767e+001 2.089178e+001 -1.467432e+001 -6.091941e+001 -9.412235e+001 3.517238e+001 -1.657747e+001 1.245034e+002
5005000000 -1.944771e+001 2.076688e+001 -1.517823e+001 -6.609577e+001 -8.375620e+001 -1.199938e+002 -1.655135e+001 1.227158e+002
5005250000 -1.941760e+001 2.060424e+001 -1.565881e+001 -7.123077e+001 -8.315299e+001 -8.282185e+001 -1.656703e+001 1.209472e+002
5005500000 -1.938598e+001 2.043448e+001 -1.610860e+001 -7.624541e+001 -8.737877e+001 -1.769200e+002 -1.654587e+001 1.192542e+002
5005750000 -1.935630e+001 2.028345e+001 -1.654547e+001 -8.119921e+001 -9.021680e+001 -1.717732e+002 -1.655010e+001 1.173750e+002
5006000000 -1.931693e+001 2.008564e+001 -1.695959e+001 -8.612637e+001 -7.937267e+001 -1.734228e+002 -1.654083e+001 1.156763e+002
5006250000 -1.927725e+001 1.989712e+001 -1.734254e+001 -9.088729e+001 -8.583752e+001 5.431402e+001 -1.653668e+001 1.139011e+002
5006500000 -1.925563e+001 1.971547e+001 -1.770863e+001 -9.568346e+001 -7.932239e+001 -2.054179e+001 -1.653863e+001 1.121641e+002
5006750000 -1.922661e+001 1.960258e+001 -1.806353e+001 -1.004220e+002 -8.026699e+001 1.728614e+001 -1.653653e+001 1.102852e+002
5007000000 -1.919183e+001 1.934027e+001 -1.841526e+001 -1.052327e+002 -8.564143e+001 8.529646e+001 -1.653940e+001 1.085024e+002
5007250000 -1.915840e+001 1.911640e+001 -1.876404e+001 -1.100634e+002 -8.531143e+001 6.978032e+001 -1.652938e+001 1.066475e+002
5007500000 -1.913572e+001 1.889700e+001 -1.910791e+001 -1.147549e+002 -7.871271e+001 4.051964e+001 -1.654302e+001 1.049506e+002
5007750000 -1.910270e+001 1.874014e+001 -1.944320e+001 -1.194280e+002 -8.959520e+001 -9.799417e+001 -1.654605e+001 1.032511e+002
5008000000 -1.908949e+001 1.848761e+001 -1.976355e+001 -1.241944e+002 -9.806108e+001 -2.359934e+001 -1.653042e+001 1.015293e+002
5008250000 -1.905723e+001 1.827144e+001 -2.010653e+001 -1.289222e+002 -8.768097e+001 -1.183829e+002 -1.654454e+001 9.968753e+001
5008500000 -1.904102e+001 1.805414e+001 -2.042626e+001 -1.333385e+002 -8.723509e+001 1.521401e+002 -1.654397e+001 9.793508e+001
5008750000 -1.901937e+001 1.783380e+001 -2.073531e+001 -1.377671e+002 -9.135195e+001 9.774144e+001 -1.655704e+001 9.622585e+001
5009000000 -1.899173e+001 1.761262e+001 -2.105840e+001 -1.420190e+002 -8.149877e+001 1.663639e+002 -1.655123e+001 9.442356e+001
5009250000 -1.897030e+001 1.736826e+001 -2.133068e+001 -1.463975e+002 -7.974028e+001 2.983489e+001 -1.655818e+001 9.265636e+001
5009500000 -1.894955e+001 1.713909e+001 -2.157329e+001 -1.506498e+002 -8.238850e+001 8.112714e+001 -1.656251e+001 9.096663e+001
5009750000 -1.893577e+001 1.691928e+001 -2.184051e+001 -1.546032e+002 -8.848946e+001 1.540785e+002 -1.657781e+001 8.925454e+001
5010000000 -1.891993e+001 1.663090e+001 -2.207042e+001 -1.590667e+002 -8.182071e+001 -5.930618e+000 -1.656109e+001 8.752435e+001
5010250000 -1.888767e+001 1.641749e+001 -2.228814e+001 -1.634667e+002 -8.645217e+001 -1.306573e+002 -1.658682e+001 8.565679e+001
5010500000 -1.887820e+001 1.615681e+001 -2.250077e+001 -1.679134e+002 -9.105083e+001 -7.763488e+001 -1.659336e+001 8.383266e+001
5010750000 -1.886386e+001 1.592555e+001 -2.271360e+001 -1.723782e+002 -8.610185e+001 -7.287480e+001 -1.658255e+001 8.203704e+001
5011000000 -1.885401e+001 1.561687e+001 -2.295454e+001 -1.766589e+002 -9.840146e+001 -5.923159e+001 -1.660665e+001 8.031452e+001
5011250000 -1.884415e+001 1.544177e+001 -2.313706e+001 1.788743e+002 -8.072563e+001 -2.038444e+001 -1.663614e+001 7.857579e+001
5011500000 -1.883172e+001 1.508834e+001 -2.336196e+001 1.743927e+002 -8.104142e+001 9.476266e+001 -1.662372e+001 7.677213e+001
5011750000 -1.882052e+001 1.486063e+001 -2.360168e+001 1.699582e+002 -7.937381e+001 2.239955e+001 -1.666354e+001 7.509841e+001
5012000000 -1.880279e+001 1.459501e+001 -2.384141e+001 1.656579e+002 -7.934963e+001 -1.599408e+002 -1.668018e+001 7.320129e+001
5012250000 -1.880680e+001 1.432075e+001 -2.406435e+001 1.615379e+002 -8.387163e+001 1.287749e+002 -1.668210e+001 7.145380e+001
5012500000 -1.879273e+001 1.405567e+001 -2.425596e+001 1.571822e+002 -7.959820e+001 -7.488055e+001 -1.670333e+001 6.969229e+001
5012750000 -1.878468e+001 1.384062e+001 -2.444702e+001 1.530240e+002 -9.171114e+001 -1.310111e+002 -1.671991e+001 6.804309e+001
5013000000 -1.877691e+001 1.354278e+001 -2.466012e+001 1.489007e+002 -8.223238e+001 9.470695e+001 -1.673502e+001 6.620654e+001
