!Agilent Technologies,N5230A,MY45001652,A.07.50.57
!Agilent N5230A: A.07.50.57
!Date: Sunday, September 20, 2015 12:38:13
!Correction: S11(Full 2 Port(1,2)) 
!S21(Full 2 Port(1,2)) 
!S12(Full 2 Port(1,2)) 
!S22(Full 2 Port(1,2)) 
!S2P File: Measurements: S11, S21, S12, S22:
# Hz S  dB   R 50
4883000000 -1.666355e+001 2.541422e+001 -2.934914e+001 -2.813011e+001 -8.451276e+001 1.086875e+002 -1.815831e+001 -2.032983e+001
4883250000 -1.678370e+001 2.514343e+001 -2.928759e+001 -3.207316e+001 -8.135310e+001 1.915463e+001 -1.815268e+001 -2.231203e+001
4883500000 -1.689912e+001 2.490959e+001 -2.920392e+001 -3.631222e+001 -8.888027e+001 1.171409e+002 -1.814262e+001 -2.423006e+001
4883750000 -1.702420e+001 2.470710e+001 -2.915032e+001 -4.028500e+001 -8.772794e+001 1.092460e+002 -1.814504e+001 -2.620543e+001
4884000000 -1.715331e+001 2.451888e+001 -2.895833e+001 -4.404958e+001 -8.930278e+001 1.764732e+002 -1.814215e+001 -2.818815e+001
4884250000 -1.727969e+001 2.441413e+001 -2.889509e+001 -4.833181e+001 -8.665382e+001 -1.609524e+002 -1.814963e+001 -3.031786e+001
4884500000 -1.741065e+001 2.423706e+001 -2.872802e+001 -5.258899e+001 -8.803793e+001 -7.943407e+001 -1.813797e+001 -3.221724e+001
4884750000 -1.754624e+001 2.414660e+001 -2.857581e+001 -5.677591e+001 -9.116865e+001 -1.355245e+002 -1.815427e+001 -3.429971e+001
4885000000 -1.767473e+001 2.410856e+001 -2.842806e+001 -6.156127e+001 -9.397446e+001 1.688460e+002 -1.814735e+001 -3.628122e+001
4885250000 -1.780704e+001 2.401679e+001 -2.830880e+001 -6.599828e+001 -8.159203e+001 -8.034351e+001 -1.814219e+001 -3.827751e+001
4885500000 -1.794618e+001 2.409391e+001 -2.824743e+001 -7.059381e+001 -8.553852e+001 -1.665457e+002 -1.813844e+001 -4.034110e+001
4885750000 -1.808456e+001 2.411628e+001 -2.811861e+001 -7.510202e+001 -8.982023e+001 -6.169161e+001 -1.813690e+001 -4.231446e+001
4886000000 -1.822361e+001 2.417337e+001 -2.809116e+001 -7.971548e+001 -8.576853e+001 -8.872552e+001 -1.813737e+001 -4.425443e+001
4886250000 -1.837143e+001 2.430477e+001 -2.803831e+001 -8.412699e+001 -8.403105e+001 -3.124754e+001 -1.813522e+001 -4.635927e+001
4886500000 -1.851608e+001 2.445173e+001 -2.797242e+001 -8.832072e+001 -8.548426e+001 1.505092e+002 -1.813227e+001 -4.834756e+001
4886750000 -1.865807e+001 2.461668e+001 -2.789022e+001 -9.258929e+001 -8.323556e+001 1.741555e+002 -1.813006e+001 -5.033641e+001
4887000000 -1.880307e+001 2.491663e+001 -2.784501e+001 -9.688687e+001 -8.749295e+001 -1.179620e+002 -1.812801e+001 -5.232711e+001
4887250000 -1.894930e+001 2.520623e+001 -2.780793e+001 -1.012760e+002 -8.920757e+001 -1.034250e+002 -1.811352e+001 -5.434975e+001
4887500000 -1.909369e+001 2.551437e+001 -2.768484e+001 -1.054424e+002 -9.110189e+001 7.675444e+001 -1.811864e+001 -5.638457e+001
4887750000 -1.923692e+001 2.586311e+001 -2.761436e+001 -1.093873e+002 -9.680912e+001 -4.463792e+001 -1.810004e+001 -5.838662e+001
4888000000 -1.938099e+001 2.631692e+001 -2.752815e+001 -1.137575e+002 -8.756396e+001 -1.785096e+002 -1.809548e+001 -6.039080e+001
4888250000 -1.952234e+001 2.681981e+001 -2.740169e+001 -1.179994e+002 -9.825745e+001 -3.133175e+001 -1.809992e+001 -6.241645e+001
4888500000 -1.966385e+001 2.735703e+001 -2.732406e+001 -1.219139e+002 -8.242652e+001 -1.214485e+002 -1.809005e+001 -6.445341e+001
4888750000 -1.980136e+001 2.798598e+001 -2.723920e+001 -1.259607e+002 -8.774387e+001 5.470408e+001 -1.807447e+001 -6.637717e+001
4889000000 -1.993640e+001 2.864869e+001 -2.713783e+001 -1.300783e+002 -9.515459e+001 2.648829e+001 -1.808203e+001 -6.836450e+001
4889250000 -2.007124e+001 2.936351e+001 -2.702515e+001 -1.341936e+002 -8.883612e+001 -1.225492e+002 -1.806656e+001 -7.046649e+001
4889500000 -2.019151e+001 3.012486e+001 -2.689793e+001 -1.382141e+002 -7.906982e+001 2.818308e+001 -1.806415e+001 -7.245957e+001
4889750000 -2.032385e+001 3.090195e+001 -2.676936e+001 -1.424000e+002 -8.594583e+001 9.021576e+001 -1.806664e+001 -7.434005e+001
4890000000 -2.044215e+001 3.179623e+001 -2.663161e+001 -1.466380e+002 -8.225863e+001 6.622246e+001 -1.804258e+001 -7.642628e+001
4890250000 -2.054883e+001 3.277054e+001 -2.648606e+001 -1.504777e+002 -8.710164e+001 -1.662132e+002 -1.805009e+001 -7.844984e+001
4890500000 -2.064774e+001 3.370070e+001 -2.635875e+001 -1.549789e+002 -8.414257e+001 -1.978709e+001 -1.803698e+001 -8.046883e+001
4890750000 -2.074135e+001 3.474698e+001 -2.622141e+001 -1.591334e+002 -8.142550e+001 -1.675168e+002 -1.802844e+001 -8.245622e+001
4891000000 -2.083767e+001 3.587869e+001 -2.606746e+001 -1.633556e+002 -7.999624e+001 -4.456518e+001 -1.802394e+001 -8.446340e+001
4891250000 -2.090688e+001 3.698911e+001 -2.588415e+001 -1.678254e+002 -8.657183e+001 2.586048e+001 -1.800386e+001 -8.642606e+001
4891500000 -2.097611e+001 3.810591e+001 -2.577537e+001 -1.719740e+002 -8.546339e+001 -9.397469e+001 -1.799954e+001 -8.846193e+001
4891750000 -2.103796e+001 3.937403e+001 -2.565175e+001 -1.765603e+002 -8.923412e+001 9.635785e+000 -1.800860e+001 -9.040273e+001
4892000000 -2.107603e+001 4.059889e+001 -2.549487e+001 1.791510e+002 -8.918167e+001 -1.629472e+002 -1.796961e+001 -9.240294e+001
4892250000 -2.111416e+001 4.178569e+001 -2.536813e+001 1.747958e+002 -8.647867e+001 5.726154e+001 -1.793960e+001 -9.434647e+001
4892500000 -2.113416e+001 4.311160e+001 -2.523820e+001 1.703321e+002 -8.761491e+001 -1.855048e+001 -1.793677e+001 -9.632774e+001
4892750000 -2.114359e+001 4.438858e+001 -2.508997e+001 1.659173e+002 -8.539404e+001 -6.450063e+001 -1.794807e+001 -9.834631e+001
4893000000 -2.114018e+001 4.564511e+001 -2.494813e+001 1.618107e+002 -9.086966e+001 8.925408e+001 -1.793093e+001 -1.003731e+002
4893250000 -2.112421e+001 4.691159e+001 -2.482614e+001 1.573543e+002 -8.666413e+001 7.162164e+001 -1.791873e+001 -1.024135e+002
4893500000 -2.110145e+001 4.815606e+001 -2.468497e+001 1.529433e+002 -9.458920e+001 5.312117e+001 -1.791388e+001 -1.043992e+002
4893750000 -2.106559e+001 4.941157e+001 -2.451754e+001 1.487072e+002 -8.334041e+001 5.196200e+001 -1.789708e+001 -1.063157e+002
4894000000 -2.101031e+001 5.062638e+001 -2.438070e+001 1.441933e+002 -9.152919e+001 -1.184792e+002 -1.788811e+001 -1.083451e+002
4894250000 -2.094473e+001 5.186518e+001 -2.422881e+001 1.399602e+002 -9.061181e+001 -1.793546e+002 -1.786566e+001 -1.103710e+002
4894500000 -2.087586e+001 5.301535e+001 -2.411842e+001 1.355307e+002 -8.075286e+001 1.290092e+001 -1.786163e+001 -1.122918e+002
4894750000 -2.079129e+001 5.414196e+001 -2.395054e+001 1.311064e+002 -8.481141e+001 -6.042390e+001 -1.784755e+001 -1.142926e+002
4895000000 -2.069791e+001 5.523915e+001 -2.378750e+001 1.269258e+002 -8.999055e+001 -1.469403e+002 -1.783400e+001 -1.162150e+002
4895250000 -2.059687e+001 5.626306e+001 -2.366241e+001 1.225315e+002 -8.202433e+001 9.087025e+001 -1.782989e+001 -1.182175e+002
4895500000 -2.048636e+001 5.727375e+001 -2.349946e+001 1.182979e+002 -9.865726e+001 -1.500019e+002 -1.780888e+001 -1.201775e+002
4895750000 -2.037173e+001 5.820518e+001 -2.335185e+001 1.139036e+002 -8.867683e+001 6.294333e+000 -1.779856e+001 -1.221466e+002
4896000000 -2.025048e+001 5.909121e+001 -2.320695e+001 1.099177e+002 -9.097528e+001 -1.737370e+002 -1.777259e+001 -1.240890e+002
4896250000 -2.012064e+001 5.992795e+001 -2.300190e+001 1.058363e+002 -8.121340e+001 1.137410e+002 -1.777799e+001 -1.260627e+002
4896500000 -1.997975e+001 6.072936e+001 -2.281057e+001 1.015087e+002 -9.075405e+001 5.380104e+001 -1.776052e+001 -1.280333e+002
4896750000 -1.984727e+001 6.139035e+001 -2.259157e+001 9.723087e+001 -8.279335e+001 -1.649023e+002 -1.774529e+001 -1.299667e+002
4897000000 -1.970603e+001 6.206895e+001 -2.239494e+001 9.271696e+001 -8.421786e+001 -1.247590e+002 -1.773170e+001 -1.319331e+002
4897250000 -1.956054e+001 6.264734e+001 -2.220158e+001 8.828652e+001 -8.215739e+001 9.379202e+001 -1.771171e+001 -1.338676e+002
4897500000 -1.940751e+001 6.321828e+001 -2.197208e+001 8.405579e+001 -7.962214e+001 -1.034462e+002 -1.769170e+001 -1.357727e+002
4897750000 -1.926530e+001 6.372309e+001 -2.174820e+001 7.942152e+001 -8.622462e+001 -1.494541e+001 -1.768494e+001 -1.377710e+002
4898000000 -1.911272e+001 6.414451e+001 -2.153987e+001 7.490123e+001 -8.661588e+001 1.765661e+002 -1.767082e+001 -1.397201e+002
4898250000 -1.895707e+001 6.457040e+001 -2.130833e+001 7.043194e+001 -8.321219e+001 7.638507e+001 -1.765779e+001 -1.417595e+002
4898500000 -1.880608e+001 6.489915e+001 -2.108842e+001 6.594399e+001 -8.184801e+001 -1.038331e+001 -1.764832e+001 -1.436479e+002
4898750000 -1.865172e+001 6.518723e+001 -2.087159e+001 6.134851e+001 -8.832398e+001 1.017935e+002 -1.762315e+001 -1.455092e+002
4899000000 -1.849984e+001 6.545262e+001 -2.064653e+001 5.678247e+001 -9.035434e+001 1.256134e+002 -1.761245e+001 -1.474758e+002
4899250000 -1.835027e+001 6.561825e+001 -2.044454e+001 5.209377e+001 -8.582476e+001 -3.563018e+001 -1.760967e+001 -1.494246e+002
4899500000 -1.819613e+001 6.575709e+001 -2.023675e+001 4.766626e+001 -7.951205e+001 1.540809e+002 -1.758637e+001 -1.513343e+002
4899750000 -1.804242e+001 6.585687e+001 -2.001872e+001 4.318127e+001 -7.938776e+001 -3.534196e+000 -1.757645e+001 -1.533724e+002
4900000000 -1.789362e+001 6.594527e+001 -1.980564e+001 3.869328e+001 -8.553222e+001 1.500767e+002 -1.756589e+001 -1.552103e+002
4900250000 -1.781609e+001 6.571047e+001 -1.960287e+001 3.430276e+001 -8.737709e+001 -6.884290e+001 -1.755334e+001 -1.571078e+002
4900500000 -1.766463e+001 6.570094e+001 -1.934929e+001 3.006820e+001 -8.102535e+001 -5.435732e+001 -1.754338e+001 -1.590497e+002
4900750000 -1.752384e+001 6.563762e+001 -1.902105e+001 2.581958e+001 -9.066833e+001 -7.621703e+001 -1.752726e+001 -1.609749e+002
4901000000 -1.738222e+001 6.564601e+001 -1.868553e+001 2.139573e+001 -8.190693e+001 6.822765e+001 -1.750742e+001 -1.628818e+002
4901250000 -1.724236e+001 6.551438e+001 -1.831238e+001 1.665300e+001 -8.623110e+001 -5.894157e+001 -1.750125e+001 -1.648439e+002
4901500000 -1.710504e+001 6.542313e+001 -1.797773e+001 1.153468e+001 -8.701506e+001 9.270966e+001 -1.748883e+001 -1.667504e+002
4901750000 -1.696602e+001 6.520068e+001 -1.763704e+001 6.643488e+000 -8.370237e+001 -1.625814e+002 -1.747798e+001 -1.686692e+002
4902000000 -1.683448e+001 6.500781e+001 -1.731212e+001 1.321284e+000 -8.688178e+001 -1.572190e+002 -1.746153e+001 -1.705088e+002
4902250000 -1.670880e+001 6.481541e+001 -1.699141e+001 -3.789577e+000 -9.387736e+001 -1.092999e+002 -1.744766e+001 -1.725130e+002
4902500000 -1.657967e+001 6.456493e+001 -1.667871e+001 -8.967540e+000 -8.311996e+001 -5.288007e+001 -1.743747e+001 -1.744067e+002
4902750000 -1.645203e+001 6.428485e+001 -1.635443e+001 -1.400539e+001 -8.490407e+001 -1.267686e+002 -1.742230e+001 -1.763248e+002
4903000000 -1.632842e+001 6.403068e+001 -1.601035e+001 -1.909882e+001 -8.506573e+001 1.069438e+002 -1.742193e+001 -1.782138e+002
4903250000 -1.621726e+001 6.371821e+001 -1.566173e+001 -2.418415e+001 -8.332471e+001 -3.400465e+001 -1.741586e+001 1.799026e+002
4903500000 -1.609551e+001 6.339165e+001 -1.529611e+001 -2.928326e+001 -8.279536e+001 -1.453258e+002 -1.738943e+001 1.780844e+002
4903750000 -1.597973e+001 6.302007e+001 -1.490756e+001 -3.455014e+001 -7.993919e+001 -1.265838e+001 -1.739206e+001 1.761161e+002
4904000000 -1.586991e+001 6.265870e+001 -1.449909e+001 -3.984733e+001 -8.853951e+001 8.128643e+001 -1.737995e+001 1.742949e+002
4904250000 -1.576055e+001 6.224697e+001 -1.408450e+001 -4.528605e+001 -8.324511e+001 1.171193e+002 -1.737219e+001 1.723883e+002
4904500000 -1.565180e+001 6.183376e+001 -1.363966e+001 -5.075781e+001 -9.441172e+001 1.318446e+002 -1.735796e+001 1.705355e+002
4904750000 -1.555044e+001 6.143071e+001 -1.317313e+001 -5.641121e+001 -8.414867e+001 7.441921e+000 -1.735056e+001 1.686016e+002
4905000000 -1.544792e+001 6.099972e+001 -1.269147e+001 -6.217325e+001 -8.190709e+001 3.036659e+001 -1.732672e+001 1.668235e+002
4905250000 -1.534618e+001 6.052085e+001 -1.217567e+001 -6.817702e+001 -8.270540e+001 -9.266085e+001 -1.731785e+001 1.649141e+002
4905500000 -1.525018e+001 6.006287e+001 -1.164354e+001 -7.437930e+001 -8.474055e+001 1.296479e+002 -1.731690e+001 1.630009e+002
4905750000 -1.515760e+001 5.958342e+001 -1.109230e+001 -8.086575e+001 -1.011251e+002 -5.224028e+001 -1.729421e+001 1.611164e+002
4906000000 -1.506609e+001 5.906754e+001 -1.051857e+001 -8.757099e+001 -8.238340e+001 1.323373e+002 -1.728709e+001 1.592806e+002
4906250000 -1.497768e+001 5.856514e+001 -9.919031e+000 -9.470368e+001 -9.173350e+001 9.318801e+001 -1.727872e+001 1.574445e+002
4906500000 -1.489005e+001 5.803760e+001 -9.292544e+000 -1.022776e+002 -8.429420e+001 1.037684e+002 -1.726844e+001 1.555353e+002
4906750000 -1.480801e+001 5.751550e+001 -8.662741e+000 -1.103733e+002 -8.926514e+001 -1.270249e+002 -1.725948e+001 1.536504e+002
4907000000 -1.472710e+001 5.695959e+001 -8.025899e+000 -1.190566e+002 -8.707688e+001 -1.765759e+002 -1.724955e+001 1.517888e+002
4907250000 -1.464877e+001 5.639581e+001 -7.400156e+000 -1.284513e+002 -8.061216e+001 7.470399e+000 -1.724384e+001 1.499664e+002
4907500000 -1.457032e+001 5.587205e+001 -6.812694e+000 -1.386452e+002 -8.184902e+001 -1.457914e+002 -1.723961e+001 1.481534e+002
4907750000 -1.449800e+001 5.526334e+001 -6.294597e+000 -1.497010e+002 -8.567424e+001 -7.870496e+001 -1.725253e+001 1.462923e+002
4908000000 -1.442784e+001 5.467369e+001 -5.896477e+000 -1.615044e+002 -1.048806e+002 -6.047276e+000 -1.721211e+001 1.444250e+002
4908250000 -1.436129e+001 5.411599e+001 -5.649773e+000 -1.739315e+002 -8.910881e+001 6.494736e+001 -1.721661e+001 1.425748e+002
4908500000 -1.429869e+001 5.350764e+001 -5.587156e+000 1.733119e+002 -9.412138e+001 1.393571e+002 -1.720458e+001 1.406837e+002
4908750000 -1.423193e+001 5.289790e+001 -5.724309e+000 1.606792e+002 -8.228115e+001 -7.379565e+001 -1.718386e+001 1.387902e+002
4909000000 -1.417060e+001 5.228635e+001 -6.029796e+000 1.484311e+002 -9.526782e+001 1.050116e+002 -1.718367e+001 1.369472e+002
4909250000 -1.410927e+001 5.166315e+001 -6.474962e+000 1.369154e+002 -8.571479e+001 1.026949e+002 -1.718249e+001 1.350143e+002
4909500000 -1.405378e+001 5.103494e+001 -7.018449e+000 1.261555e+002 -8.581573e+001 7.106412e+000 -1.717385e+001 1.331932e+002
4909750000 -1.399921e+001 5.039746e+001 -7.621686e+000 1.162406e+002 -9.692756e+001 -1.694964e+002 -1.717412e+001 1.312771e+002
4910000000 -1.394618e+001 4.974291e+001 -8.253633e+000 1.070668e+002 -8.196226e+001 1.328736e+002 -1.717548e+001 1.294422e+002
4910250000 -1.389495e+001 4.911612e+001 -8.894831e+000 9.858121e+001 -9.797786e+001 1.328378e+002 -1.717191e+001 1.275274e+002
4910500000 -1.385477e+001 4.849735e+001 -9.528794e+000 9.069271e+001 -9.828289e+001 7.838867e+001 -1.716360e+001 1.256772e+002
4910750000 -1.380664e+001 4.780102e+001 -1.014339e+001 8.315867e+001 -8.639854e+001 -1.162455e+002 -1.715980e+001 1.238496e+002
4911000000 -1.376587e+001 4.714523e+001 -1.075334e+001 7.617491e+001 -8.699242e+001 -1.640168e+002 -1.717118e+001 1.220441e+002
4911250000 -1.372603e+001 4.648693e+001 -1.132594e+001 6.954104e+001 -9.171811e+001 2.565232e+001 -1.716427e+001 1.201254e+002
4911500000 -1.368548e+001 4.579552e+001 -1.187537e+001 6.313243e+001 -8.175017e+001 -1.263343e+002 -1.714809e+001 1.183226e+002
4911750000 -1.365077e+001 4.515408e+001 -1.240518e+001 5.700082e+001 -8.282050e+001 -6.569765e+001 -1.715142e+001 1.164395e+002
4912000000 -1.361849e+001 4.448994e+001 -1.291248e+001 5.106447e+001 -8.609444e+001 -1.128493e+002 -1.715520e+001 1.145267e+002
4912250000 -1.359057e+001 4.378954e+001 -1.339267e+001 4.532015e+001 -9.005667e+001 -1.401844e+002 -1.715678e+001 1.126195e+002
4912500000 -1.356183e+001 4.310578e+001 -1.385717e+001 3.965720e+001 -8.317764e+001 -1.687609e+002 -1.714187e+001 1.108662e+002
4912750000 -1.353589e+001 4.242320e+001 -1.429612e+001 3.423396e+001 -1.077481e+002 -1.493150e+002 -1.713670e+001 1.090546e+002
4913000000 -1.350819e+001 4.173611e+001 -1.472977e+001 2.876830e+001 -8.234074e+001 2.531984e+001 -1.715620e+001 1.071761e+002
4913250000 -1.348489e+001 4.102601e+001 -1.514725e+001 2.341801e+001 -9.424285e+001 -1.164633e+002 -1.715405e+001 1.053028e+002
4913500000 -1.346435e+001 4.036707e+001 -1.553543e+001 1.816727e+001 -8.200056e+001 1.624309e+002 -1.715645e+001 1.033909e+002
4913750000 -1.344664e+001 3.965704e+001 -1.593228e+001 1.298720e+001 -8.580492e+001 1.113742e+002 -1.716273e+001 1.015930e+002
4914000000 -1.343062e+001 3.896351e+001 -1.632231e+001 7.813963e+000 -8.989103e+001 -8.540573e+001 -1.717518e+001 9.966686e+001
4914250000 -1.341938e+001 3.825803e+001 -1.670652e+001 2.800793e+000 -8.694557e+001 -1.073508e+002 -1.717157e+001 9.784548e+001
4914500000 -1.340860e+001 3.755841e+001 -1.708057e+001 -2.176705e+000 -8.178029e+001 1.733103e+001 -1.718084e+001 9.598742e+001
4914750000 -1.340036e+001 3.685801e+001 -1.745406e+001 -7.076741e+000 -1.001052e+002 -8.217158e+001 -1.717952e+001 9.416647e+001
4915000000 -1.339271e+001 3.615061e+001 -1.780692e+001 -1.179652e+001 -9.504044e+001 -7.403204e+001 -1.718169e+001 9.227361e+001
4915250000 -1.338656e+001 3.545943e+001 -1.813237e+001 -1.641473e+001 -9.672587e+001 1.509505e+002 -1.719365e+001 9.046723e+001
4915500000 -1.338765e+001 3.473784e+001 -1.845951e+001 -2.100959e+001 -8.697563e+001 -1.647970e+002 -1.720226e+001 8.863239e+001
4915750000 -1.338641e+001 3.403221e+001 -1.877372e+001 -2.559589e+001 -8.692325e+001 9.480231e+000 -1.718957e+001 8.673393e+001
4916000000 -1.338710e+001 3.331851e+001 -1.908615e+001 -3.012164e+001 -8.593743e+001 -4.506422e+001 -1.719541e+001 8.490096e+001
4916250000 -1.339483e+001 3.260833e+001 -1.937325e+001 -3.456474e+001 -1.024452e+002 8.675433e+001 -1.719496e+001 8.305124e+001
4916500000 -1.339931e+001 3.191599e+001 -1.965739e+001 -3.894660e+001 -9.547466e+001 1.067194e+002 -1.719662e+001 8.117587e+001
4916750000 -1.341025e+001 3.119591e+001 -1.992520e+001 -4.334637e+001 -9.367358e+001 4.923152e+001 -1.720436e+001 7.934383e+001
4917000000 -1.341847e+001 3.049852e+001 -2.020025e+001 -4.763928e+001 -8.416489e+001 -7.865555e+001 -1.718180e+001 7.746560e+001
4917250000 -1.342988e+001 2.978199e+001 -2.044551e+001 -5.185813e+001 -8.614309e+001 -1.115775e+002 -1.720808e+001 7.556043e+001
4917500000 -1.344881e+001 2.907658e+001 -2.068840e+001 -5.621758e+001 -8.849588e+001 -1.593638e+002 -1.720974e+001 7.371502e+001
4917750000 -1.346518e+001 2.838057e+001 -2.092223e+001 -6.062258e+001 -8.955452e+001 -5.896051e+001 -1.722592e+001 7.179459e+001
4918000000 -1.348482e+001 2.765579e+001 -2.115351e+001 -6.480923e+001 -8.614014e+001 -1.408827e+002 -1.722342e+001 6.995007e+001
4918250000 -1.350533e+001 2.696033e+001 -2.136248e+001 -6.912210e+001 -8.460568e+001 6.822466e+001 -1.723611e+001 6.805634e+001
4918500000 -1.353172e+001 2.626737e+001 -2.157739e+001 -7.328034e+001 -8.024287e+001 -1.577052e+002 -1.724209e+001 6.617161e+001
4918750000 -1.355852e+001 2.557187e+001 -2.178073e+001 -7.754871e+001 -8.050619e+001 -1.674928e+002 -1.724345e+001 6.431960e+001
4919000000 -1.358638e+001 2.487079e+001 -2.197955e+001 -8.186800e+001 -8.292402e+001 7.587610e+001 -1.725916e+001 6.240758e+001
4919250000 -1.361834e+001 2.416199e+001 -2.218192e+001 -8.588660e+001 -8.820307e+001 -4.886613e+001 -1.726038e+001 6.045895e+001
4919500000 -1.365269e+001 2.347839e+001 -2.236108e+001 -9.000867e+001 -8.120878e+001 -1.155692e+002 -1.726655e+001 5.851159e+001
4919750000 -1.368909e+001 2.276857e+001 -2.251917e+001 -9.425806e+001 -8.413800e+001 -1.524976e+002 -1.726450e+001 5.674020e+001
4920000000 -1.372597e+001 2.208797e+001 -2.267530e+001 -9.830449e+001 -8.537164e+001 -1.454318e+002 -1.728771e+001 5.486162e+001
4920250000 -1.376869e+001 2.142114e+001 -2.285460e+001 -1.026413e+002 -8.075221e+001 -7.156203e-001 -1.729966e+001 5.293534e+001
4920500000 -1.380985e+001 2.073058e+001 -2.299545e+001 -1.066111e+002 -8.958195e+001 1.352764e+002 -1.729815e+001 5.097136e+001
4920750000 -1.385717e+001 2.005347e+001 -2.308991e+001 -1.109331e+002 -8.626797e+001 -8.200912e+001 -1.729630e+001 4.915034e+001
4921000000 -1.390005e+001 1.936145e+001 -2.321607e+001 -1.152454e+002 -9.124934e+001 -1.428405e+002 -1.731785e+001 4.726355e+001
